
SetupTitle, SET+RESET
ApplicationTest, DoubleSweep_IV, Public
TestParameter, Name, Port1, Port2, Vstart1, Vstop1, Vstep1, Compliance1, Vstart2, Vstop2, Vstep2, Compliance2, IntegTime, HoldTime, DelayTime, MinRange
TestParameter, Value, SMU1:MP	MPSMU, SMU2:MP	MPSMU, 0, 2, 0.01, 0.0001, 0, -1.4, 0.01, 0.1, MEDIUM, 0, 0, 1nA
DutParameter, Name, Temp, CCMax
DutParameter, Value, 25, 0.1
MetaData, TestRecord.EntryPoint, true
MetaData, TestRecord.RecordTime, 10/27/2025 15:46:04
MetaData, TestRecord.TestTarget, 
MetaData, TestRecord.IterationIndex, 15
MetaData, TestRecord.Preservation, true
MetaData, TestRecord.Flag, 
MetaData, TestRecord.Remarks, 
MetaData, TestRecord.LinkKey, 55e57486-fef9-42fe-9f03-a6e8c7cb4211
MetaData, TestRecord.Parameters, 
Dimension1, 681, 681
Dimension2, 1, 1
DataName, V1, I1
DataValue, 0, 4.791E-12
DataValue, 0.01, 1.04095E-08
DataValue, 0.02, 2.1333999999999998E-08
DataValue, 0.030000000000000002, 3.3251299999999994E-08
DataValue, 0.04, 4.6118199999999994E-08
DataValue, 0.05, 6.0493599999999991E-08
DataValue, 0.060000000000000005, 7.58278E-08
DataValue, 0.07, 9.29319E-08
DataValue, 0.08, 1.1160549999999999E-07
DataValue, 0.090000000000000011, 1.30114E-07
DataValue, 0.1, 1.5185E-07
DataValue, 0.11, 1.76404E-07
DataValue, 0.12000000000000001, 2.02356E-07
DataValue, 0.13, 2.30053E-07
DataValue, 0.14, 2.60754E-07
DataValue, 0.15, 2.92671E-07
DataValue, 0.16, 3.2445199999999997E-07
DataValue, 0.17, 3.61012E-07
DataValue, 0.18000000000000002, 3.95872E-07
DataValue, 0.19, 4.39377E-07
DataValue, 0.2, 4.85305E-07
DataValue, 0.21000000000000002, 5.3000899999999994E-07
DataValue, 0.22, 5.80723E-07
DataValue, 0.23, 6.2684099999999994E-07
DataValue, 0.24000000000000002, 6.81797E-07
DataValue, 0.25, 7.39298E-07
DataValue, 0.26, 7.98344E-07
DataValue, 0.27, 8.6325E-07
DataValue, 0.28, 9.26864E-07
DataValue, 0.29000000000000004, 9.94856E-07
DataValue, 0.3, 1.05207E-06
DataValue, 0.31, 1.121615E-06
DataValue, 0.32, 1.2062200000000001E-06
DataValue, 0.33, 1.28244E-06
DataValue, 0.34, 1.3669300000000002E-06
DataValue, 0.35000000000000003, 1.4559200000000002E-06
DataValue, 0.36000000000000004, 1.5445400000000003E-06
DataValue, 0.37, 1.6400700000000002E-06
DataValue, 0.38, 1.7277200000000001E-06
DataValue, 0.39, 1.8147400000000002E-06
DataValue, 0.4, 1.90901E-06
DataValue, 0.41000000000000003, 2.0138700000000003E-06
DataValue, 0.42000000000000004, 2.12522E-06
DataValue, 0.43, 2.2226100000000004E-06
DataValue, 0.44, 2.32497E-06
DataValue, 0.45, 2.4264400000000004E-06
DataValue, 0.46, 2.5388100000000004E-06
DataValue, 0.47000000000000003, 2.67199E-06
DataValue, 0.48000000000000004, 2.7975500000000004E-06
DataValue, 0.49000000000000005, 2.91321E-06
DataValue, 0.5, 3.04577E-06
DataValue, 0.51, 3.19464E-06
DataValue, 0.52, 3.3310800000000005E-06
DataValue, 0.53, 3.4790300000000005E-06
DataValue, 0.54, 3.6373300000000003E-06
DataValue, 0.55, 3.8021000000000004E-06
DataValue, 0.56, 3.9606500000000008E-06
DataValue, 0.57000000000000006, 4.1112000000000006E-06
DataValue, 0.58000000000000007, 4.23638E-06
DataValue, 0.59000000000000008, 4.4108400000000004E-06
DataValue, 0.6, 4.58202E-06
DataValue, 0.61, 4.75903E-06
DataValue, 0.62, 4.96716E-06
DataValue, 0.63, 5.1652600000000009E-06
DataValue, 0.64, 5.39148E-06
DataValue, 0.65, 5.49722E-06
DataValue, 0.66, 5.6958000000000006E-06
DataValue, 0.67, 5.9011100000000008E-06
DataValue, 0.68, 6.1093300000000005E-06
DataValue, 0.69000000000000006, 6.27556E-06
DataValue, 0.70000000000000007, 6.5465600000000007E-06
DataValue, 0.71000000000000008, 6.8126600000000006E-06
DataValue, 0.72000000000000008, 7.0331500000000006E-06
DataValue, 0.73, 7.3313500000000005E-06
DataValue, 0.74, 7.5732500000000007E-06
DataValue, 0.75, 7.8907E-06
DataValue, 0.76, 8.17079E-06
DataValue, 0.77, 8.5112800000000013E-06
DataValue, 0.78, 8.82458E-06
DataValue, 0.79, 9.10919E-06
DataValue, 0.8, 9.3751100000000018E-06
DataValue, 0.81, 9.67608E-06
DataValue, 0.82000000000000006, 9.9816300000000015E-06
DataValue, 0.83000000000000007, 1.0291550000000001E-05
DataValue, 0.84000000000000008, 1.0366400000000001E-05
DataValue, 0.85000000000000009, 1.0950380000000001E-05
DataValue, 0.86, 1.1235160000000001E-05
DataValue, 0.87, 1.16502E-05
DataValue, 0.88, 1.20716E-05
DataValue, 0.89, 1.2389800000000001E-05
DataValue, 0.9, 1.30005E-05
DataValue, 0.91, 1.3430400000000001E-05
DataValue, 0.92, 1.3591900000000001E-05
DataValue, 0.93, 1.4254100000000001E-05
DataValue, 0.94000000000000006, 1.46629E-05
DataValue, 0.95000000000000007, 1.5066000000000001E-05
DataValue, 0.96000000000000008, 1.48305E-05
DataValue, 0.97000000000000008, 1.54569E-05
DataValue, 0.98000000000000009, 1.6092E-05
DataValue, 0.9900000000000001, 1.65314E-05
DataValue, 1, 1.69472E-05
DataValue, 1.01, 1.7759700000000002E-05
DataValue, 1.02, 1.83304E-05
DataValue, 1.03, 1.9371300000000002E-05
DataValue, 1.04, 1.97244E-05
DataValue, 1.05, 1.9266E-05
DataValue, 1.06, 1.98293E-05
DataValue, 1.07, 2.08173E-05
DataValue, 1.08, 2.1213000000000002E-05
DataValue, 1.09, 2.18787E-05
DataValue, 1.1, 2.2534300000000002E-05
DataValue, 1.11, 2.31347E-05
DataValue, 1.12, 2.4781000000000002E-05
DataValue, 1.1300000000000001, 2.56581E-05
DataValue, 1.1400000000000001, 2.9759400000000002E-05
DataValue, 1.1500000000000001, 2.77363E-05
DataValue, 1.1600000000000001, 2.9059800000000003E-05
DataValue, 1.1700000000000002, 3.25078E-05
DataValue, 1.1800000000000002, 4.27428E-05
DataValue, 1.19, 5.7111900000000005E-05
DataValue, 1.2, 9.99992E-05
DataValue, 1.21, 9.999910000000001E-05
DataValue, 1.22, 9.999910000000001E-05
DataValue, 1.23, 9.999910000000001E-05
DataValue, 1.24, 9.99992E-05
DataValue, 1.25, 9.99992E-05
DataValue, 1.26, 9.999910000000001E-05
DataValue, 1.27, 9.99992E-05
DataValue, 1.28, 9.99992E-05
DataValue, 1.29, 9.999910000000001E-05
DataValue, 1.3, 9.999910000000001E-05
DataValue, 1.31, 9.99992E-05
DataValue, 1.32, 9.999910000000001E-05
DataValue, 1.33, 9.999910000000001E-05
DataValue, 1.34, 9.99992E-05
DataValue, 1.35, 9.999910000000001E-05
DataValue, 1.36, 9.999910000000001E-05
DataValue, 1.37, 9.99992E-05
DataValue, 1.3800000000000001, 9.99992E-05
DataValue, 1.3900000000000001, 9.999910000000001E-05
DataValue, 1.4000000000000001, 9.9999E-05
DataValue, 1.4100000000000001, 9.99992E-05
DataValue, 1.4200000000000002, 9.99992E-05
DataValue, 1.4300000000000002, 9.99992E-05
DataValue, 1.4400000000000002, 9.99992E-05
DataValue, 1.4500000000000002, 9.99992E-05
DataValue, 1.46, 9.999910000000001E-05
DataValue, 1.47, 9.99992E-05
DataValue, 1.48, 9.99992E-05
DataValue, 1.49, 9.99992E-05
DataValue, 1.5, 9.99992E-05
DataValue, 1.51, 9.99992E-05
DataValue, 1.52, 9.999910000000001E-05
DataValue, 1.53, 9.99992E-05
DataValue, 1.54, 9.999910000000001E-05
DataValue, 1.55, 9.99992E-05
DataValue, 1.56, 9.99992E-05
DataValue, 1.57, 9.99992E-05
DataValue, 1.58, 9.999910000000001E-05
DataValue, 1.59, 9.99992E-05
DataValue, 1.6, 9.99992E-05
DataValue, 1.61, 9.99992E-05
DataValue, 1.62, 9.99992E-05
DataValue, 1.6300000000000001, 9.99992E-05
DataValue, 1.6400000000000001, 9.99992E-05
DataValue, 1.6500000000000001, 9.999930000000001E-05
DataValue, 1.6600000000000001, 9.99992E-05
DataValue, 1.6700000000000002, 9.99992E-05
DataValue, 1.6800000000000002, 9.99992E-05
DataValue, 1.6900000000000002, 9.999910000000001E-05
DataValue, 1.7000000000000002, 9.99992E-05
DataValue, 1.7100000000000002, 9.99992E-05
DataValue, 1.72, 9.99992E-05
DataValue, 1.73, 9.99992E-05
DataValue, 1.74, 9.99992E-05
DataValue, 1.75, 9.99992E-05
DataValue, 1.76, 9.99992E-05
DataValue, 1.77, 9.99992E-05
DataValue, 1.78, 9.99992E-05
DataValue, 1.79, 9.999910000000001E-05
DataValue, 1.8, 9.99992E-05
DataValue, 1.81, 9.99992E-05
DataValue, 1.82, 9.99992E-05
DataValue, 1.83, 9.99992E-05
DataValue, 1.84, 9.99992E-05
DataValue, 1.85, 9.99992E-05
DataValue, 1.86, 9.99992E-05
DataValue, 1.87, 9.99992E-05
DataValue, 1.8800000000000001, 9.99992E-05
DataValue, 1.8900000000000001, 9.99992E-05
DataValue, 1.9000000000000001, 9.99992E-05
DataValue, 1.9100000000000001, 9.999930000000001E-05
DataValue, 1.9200000000000002, 9.99992E-05
DataValue, 1.9300000000000002, 9.99992E-05
DataValue, 1.9400000000000002, 9.99992E-05
DataValue, 1.9500000000000002, 9.999930000000001E-05
DataValue, 1.9600000000000002, 9.99992E-05
DataValue, 1.9700000000000002, 9.99992E-05
DataValue, 1.9800000000000002, 9.99992E-05
DataValue, 1.99, 9.999930000000001E-05
DataValue, 2, 9.999910000000001E-05
DataValue, 1.99, 9.99992E-05
DataValue, 1.9800000000000002, 9.999930000000001E-05
DataValue, 1.9700000000000002, 9.99992E-05
DataValue, 1.9600000000000002, 9.99992E-05
DataValue, 1.9500000000000002, 9.99992E-05
DataValue, 1.9400000000000002, 9.99992E-05
DataValue, 1.9300000000000002, 9.99992E-05
DataValue, 1.9200000000000002, 9.99992E-05
DataValue, 1.9100000000000001, 9.99992E-05
DataValue, 1.9000000000000001, 9.999930000000001E-05
DataValue, 1.8900000000000001, 9.99992E-05
DataValue, 1.8800000000000001, 9.99992E-05
DataValue, 1.87, 9.99992E-05
DataValue, 1.86, 9.99992E-05
DataValue, 1.85, 9.99992E-05
DataValue, 1.84, 9.99992E-05
DataValue, 1.83, 9.999930000000001E-05
DataValue, 1.82, 9.99992E-05
DataValue, 1.81, 9.99992E-05
DataValue, 1.8, 9.999930000000001E-05
DataValue, 1.79, 9.99992E-05
DataValue, 1.78, 9.99992E-05
DataValue, 1.77, 9.99992E-05
DataValue, 1.76, 9.99992E-05
DataValue, 1.75, 9.99992E-05
DataValue, 1.74, 9.999910000000001E-05
DataValue, 1.73, 9.99992E-05
DataValue, 1.72, 9.99992E-05
DataValue, 1.7100000000000002, 9.999910000000001E-05
DataValue, 1.7000000000000002, 9.99992E-05
DataValue, 1.6900000000000002, 9.99992E-05
DataValue, 1.6800000000000002, 9.99992E-05
DataValue, 1.6700000000000002, 9.99992E-05
DataValue, 1.6600000000000001, 9.9999E-05
DataValue, 1.6500000000000001, 9.999910000000001E-05
DataValue, 1.6400000000000001, 9.99992E-05
DataValue, 1.6300000000000001, 9.999910000000001E-05
DataValue, 1.62, 9.99992E-05
DataValue, 1.61, 9.99992E-05
DataValue, 1.6, 9.99992E-05
DataValue, 1.59, 9.99992E-05
DataValue, 1.58, 9.99992E-05
DataValue, 1.57, 9.999910000000001E-05
DataValue, 1.56, 9.99992E-05
DataValue, 1.55, 9.99992E-05
DataValue, 1.54, 9.999930000000001E-05
DataValue, 1.53, 9.99992E-05
DataValue, 1.52, 9.99992E-05
DataValue, 1.51, 9.99992E-05
DataValue, 1.5, 9.999910000000001E-05
DataValue, 1.49, 9.999910000000001E-05
DataValue, 1.48, 9.999910000000001E-05
DataValue, 1.47, 9.99992E-05
DataValue, 1.46, 9.99992E-05
DataValue, 1.4500000000000002, 9.99992E-05
DataValue, 1.4400000000000002, 9.99992E-05
DataValue, 1.4300000000000002, 9.999910000000001E-05
DataValue, 1.4200000000000002, 9.99992E-05
DataValue, 1.4100000000000001, 9.99992E-05
DataValue, 1.4000000000000001, 9.999910000000001E-05
DataValue, 1.3900000000000001, 9.99992E-05
DataValue, 1.3800000000000001, 9.99992E-05
DataValue, 1.37, 9.99992E-05
DataValue, 1.36, 9.99992E-05
DataValue, 1.35, 9.999910000000001E-05
DataValue, 1.34, 9.99992E-05
DataValue, 1.33, 9.99992E-05
DataValue, 1.32, 9.99992E-05
DataValue, 1.31, 9.99992E-05
DataValue, 1.3, 9.99992E-05
DataValue, 1.29, 9.99992E-05
DataValue, 1.28, 9.99992E-05
DataValue, 1.27, 9.99992E-05
DataValue, 1.26, 9.99992E-05
DataValue, 1.25, 9.999910000000001E-05
DataValue, 1.24, 9.999910000000001E-05
DataValue, 1.23, 9.99992E-05
DataValue, 1.22, 9.999910000000001E-05
DataValue, 1.21, 9.99992E-05
DataValue, 1.2, 9.99992E-05
DataValue, 1.19, 9.999910000000001E-05
DataValue, 1.1800000000000002, 9.99992E-05
DataValue, 1.1700000000000002, 9.99992E-05
DataValue, 1.1600000000000001, 9.999910000000001E-05
DataValue, 1.1500000000000001, 9.9999E-05
DataValue, 1.1400000000000001, 9.999910000000001E-05
DataValue, 1.1300000000000001, 9.999910000000001E-05
DataValue, 1.12, 9.999910000000001E-05
DataValue, 1.11, 9.999910000000001E-05
DataValue, 1.1, 9.95596E-05
DataValue, 1.09, 9.73208E-05
DataValue, 1.08, 9.51854E-05
DataValue, 1.07, 9.23456E-05
DataValue, 1.06, 8.99442E-05
DataValue, 1.05, 8.7726200000000007E-05
DataValue, 1.04, 8.53287E-05
DataValue, 1.03, 8.2856800000000009E-05
DataValue, 1.02, 8.02446E-05
DataValue, 1.01, 7.79599E-05
DataValue, 1, 7.54941E-05
DataValue, 0.9900000000000001, 7.31476E-05
DataValue, 0.98000000000000009, 7.13267E-05
DataValue, 0.97000000000000008, 6.9049000000000009E-05
DataValue, 0.96000000000000008, 6.68567E-05
DataValue, 0.95000000000000007, 6.4737500000000008E-05
DataValue, 0.94000000000000006, 6.24541E-05
DataValue, 0.93, 6.0226600000000004E-05
DataValue, 0.92, 5.8072600000000004E-05
DataValue, 0.91, 5.59942E-05
DataValue, 0.9, 5.4074400000000005E-05
DataValue, 0.89, 5.1957400000000005E-05
DataValue, 0.88, 5.00184E-05
DataValue, 0.87, 4.82171E-05
DataValue, 0.86, 4.63587E-05
DataValue, 0.85000000000000009, 4.46014E-05
DataValue, 0.84000000000000008, 4.2871500000000004E-05
DataValue, 0.83000000000000007, 4.11886E-05
DataValue, 0.82000000000000006, 3.95044E-05
DataValue, 0.81, 3.79101E-05
DataValue, 0.8, 3.64894E-05
DataValue, 0.79, 3.50702E-05
DataValue, 0.78, 3.36111E-05
DataValue, 0.77, 3.22756E-05
DataValue, 0.76, 3.1013500000000004E-05
DataValue, 0.75, 2.9790300000000002E-05
DataValue, 0.74, 2.86366E-05
DataValue, 0.73, 2.75567E-05
DataValue, 0.72000000000000008, 2.6460800000000003E-05
DataValue, 0.71000000000000008, 2.54258E-05
DataValue, 0.70000000000000007, 2.44297E-05
DataValue, 0.69000000000000006, 2.3513E-05
DataValue, 0.68, 2.2597700000000002E-05
DataValue, 0.67, 2.1750900000000002E-05
DataValue, 0.66, 2.0910400000000002E-05
DataValue, 0.65, 2.01341E-05
DataValue, 0.64, 1.9386700000000002E-05
DataValue, 0.63, 1.86634E-05
DataValue, 0.62, 1.7990000000000002E-05
DataValue, 0.61, 1.73453E-05
DataValue, 0.6, 1.6707300000000002E-05
DataValue, 0.59000000000000008, 1.60973E-05
DataValue, 0.58000000000000007, 1.55162E-05
DataValue, 0.57000000000000006, 1.49747E-05
DataValue, 0.56, 1.44431E-05
DataValue, 0.55, 1.39306E-05
DataValue, 0.54, 1.34534E-05
DataValue, 0.53, 1.29814E-05
DataValue, 0.52, 1.25155E-05
DataValue, 0.51, 1.20882E-05
DataValue, 0.5, 1.16583E-05
DataValue, 0.49000000000000005, 1.12426E-05
DataValue, 0.48000000000000004, 1.0859300000000001E-05
DataValue, 0.47000000000000003, 1.04701E-05
DataValue, 0.46, 1.0103E-05
DataValue, 0.45, 9.7494700000000017E-06
DataValue, 0.44, 9.40202E-06
DataValue, 0.43, 9.06379E-06
DataValue, 0.42000000000000004, 8.7317200000000012E-06
DataValue, 0.41000000000000003, 8.41864E-06
DataValue, 0.4, 8.12078E-06
DataValue, 0.39, 7.8163400000000011E-06
DataValue, 0.38, 7.5247500000000011E-06
DataValue, 0.37, 7.2449700000000005E-06
DataValue, 0.36000000000000004, 6.9727700000000008E-06
DataValue, 0.35000000000000003, 6.704540000000001E-06
DataValue, 0.34, 6.4507700000000006E-06
DataValue, 0.33, 6.1991500000000006E-06
DataValue, 0.32, 5.95485E-06
DataValue, 0.31, 5.7129100000000007E-06
DataValue, 0.3, 5.4808200000000007E-06
DataValue, 0.29000000000000004, 5.24691E-06
DataValue, 0.28, 5.0222700000000006E-06
DataValue, 0.27, 4.8070700000000005E-06
DataValue, 0.26, 4.59004E-06
DataValue, 0.25, 4.378E-06
DataValue, 0.24000000000000002, 4.16842E-06
DataValue, 0.23, 3.96432E-06
DataValue, 0.22, 3.7658300000000004E-06
DataValue, 0.21000000000000002, 3.5697900000000003E-06
DataValue, 0.2, 3.38141E-06
DataValue, 0.19, 3.1909000000000002E-06
DataValue, 0.18000000000000002, 3.0049100000000005E-06
DataValue, 0.17, 2.8217900000000004E-06
DataValue, 0.16, 2.6433200000000003E-06
DataValue, 0.15, 2.46661E-06
DataValue, 0.14, 2.29348E-06
DataValue, 0.13, 2.12043E-06
DataValue, 0.12000000000000001, 1.9468500000000003E-06
DataValue, 0.11, 1.7780300000000002E-06
DataValue, 0.1, 1.6086700000000002E-06
DataValue, 0.090000000000000011, 1.44367E-06
DataValue, 0.08, 1.2803900000000002E-06
DataValue, 0.07, 1.1159900000000001E-06
DataValue, 0.060000000000000005, 9.54755E-07
DataValue, 0.05, 7.93094E-07
DataValue, 0.04, 6.34035E-07
DataValue, 0.030000000000000002, 4.74049E-07
DataValue, 0.02, 3.16179E-07
DataValue, 0.01, 1.58412E-07
DataValue, 0, 5.2497000000000006E-11
DataValue, -0.01, 1.73655E-07
DataValue, -0.02, 3.48457E-07
DataValue, -0.030000000000000002, 5.21704E-07
DataValue, -0.04, 6.96632E-07
DataValue, -0.05, 8.71704E-07
DataValue, -0.060000000000000005, 1.048485E-06
DataValue, -0.07, 1.22423E-06
DataValue, -0.08, 1.40434E-06
DataValue, -0.090000000000000011, 1.5802200000000003E-06
DataValue, -0.1, 1.7604800000000002E-06
DataValue, -0.11, 1.94246E-06
DataValue, -0.12000000000000001, 2.12487E-06
DataValue, -0.13, 2.3105100000000004E-06
DataValue, -0.14, 2.49759E-06
DataValue, -0.15, 2.6865600000000004E-06
DataValue, -0.16, 2.87726E-06
DataValue, -0.17, 3.0754200000000004E-06
DataValue, -0.18000000000000002, 3.2700300000000004E-06
DataValue, -0.19, 3.4687300000000003E-06
DataValue, -0.2, 3.6751900000000006E-06
DataValue, -0.21000000000000002, 3.88309E-06
DataValue, -0.22, 4.0960200000000008E-06
DataValue, -0.23, 4.31408E-06
DataValue, -0.24000000000000002, 4.5296600000000006E-06
DataValue, -0.25, 4.75022E-06
DataValue, -0.26, 4.9764E-06
DataValue, -0.27, 5.2094000000000005E-06
DataValue, -0.28, 5.4482700000000004E-06
DataValue, -0.29000000000000004, 5.6900400000000008E-06
DataValue, -0.3, 5.9450700000000005E-06
DataValue, -0.31, 6.1979400000000007E-06
DataValue, -0.32, 6.4581000000000009E-06
DataValue, -0.33, 6.7311100000000005E-06
DataValue, -0.34, 7.001530000000001E-06
DataValue, -0.35000000000000003, 7.2827100000000004E-06
DataValue, -0.36000000000000004, 7.5830900000000004E-06
DataValue, -0.37, 7.87709E-06
DataValue, -0.38, 8.175540000000001E-06
DataValue, -0.39, 8.48683E-06
DataValue, -0.4, 8.8222700000000015E-06
DataValue, -0.41000000000000003, 9.151000000000001E-06
DataValue, -0.42000000000000004, 9.4836200000000015E-06
DataValue, -0.43, 9.85073E-06
DataValue, -0.44, 1.0195480000000001E-05
DataValue, -0.45, 1.057085E-05
DataValue, -0.46, 1.0953970000000002E-05
DataValue, -0.47000000000000003, 1.136919E-05
DataValue, -0.48000000000000004, 1.18055E-05
DataValue, -0.49000000000000005, 1.2232800000000001E-05
DataValue, -0.5, 1.26775E-05
DataValue, -0.51, 1.3120600000000001E-05
DataValue, -0.52, 1.3627400000000001E-05
DataValue, -0.53, 1.4123E-05
DataValue, -0.54, 1.46471E-05
DataValue, -0.55, 1.52045E-05
DataValue, -0.56, 1.57579E-05
DataValue, -0.57000000000000006, 1.6331800000000002E-05
DataValue, -0.58000000000000007, 1.6962300000000002E-05
DataValue, -0.59000000000000008, 1.75632E-05
DataValue, -0.6, 1.82303E-05
DataValue, -0.61, 1.8912E-05
DataValue, -0.62, 1.96176E-05
DataValue, -0.63, 2.03878E-05
DataValue, -0.64, 2.11448E-05
DataValue, -0.65, 2.1849800000000002E-05
DataValue, -0.66, 2.27233E-05
DataValue, -0.67, 2.3571100000000002E-05
DataValue, -0.68, 2.44747E-05
DataValue, -0.69000000000000006, 2.54265E-05
DataValue, -0.70000000000000007, 2.64025E-05
DataValue, -0.71000000000000008, 2.7392600000000003E-05
DataValue, -0.72000000000000008, 2.84545E-05
DataValue, -0.73, 2.9552400000000002E-05
DataValue, -0.74, 3.07533E-05
DataValue, -0.75, 3.2008500000000004E-05
DataValue, -0.76, 3.32469E-05
DataValue, -0.77, 3.4512000000000004E-05
DataValue, -0.78, 3.5856200000000004E-05
DataValue, -0.79, 3.7330100000000004E-05
DataValue, -0.8, 3.87449E-05
DataValue, -0.81, 4.02256E-05
DataValue, -0.82000000000000006, 4.1675100000000004E-05
DataValue, -0.83000000000000007, 4.33684E-05
DataValue, -0.84000000000000008, 4.49227E-05
DataValue, -0.85000000000000009, 4.66284E-05
DataValue, -0.86, 4.84242E-05
DataValue, -0.87, 5.03518E-05
DataValue, -0.88, 5.19592E-05
DataValue, -0.89, 5.38072E-05
DataValue, -0.9, 5.57622E-05
DataValue, -0.91, 5.74656E-05
DataValue, -0.92, 5.9333E-05
DataValue, -0.93, 6.15085E-05
