
SetupTitle, SET+RESET
ApplicationTest, DoubleSweep_IV, Public
TestParameter, Name, Port1, Port2, Vstart1, Vstop1, Vstep1, Compliance1, Vstart2, Vstop2, Vstep2, Compliance2, IntegTime, HoldTime, DelayTime, MinRange
TestParameter, Value, SMU1:MP	MPSMU, SMU2:MP	MPSMU, 0, 3, 0.01, 0.0001, 0, -0.70000000000000007, 0.01, 0.1, MEDIUM, 0, 0, 1nA
DutParameter, Name, Temp, CCMax
DutParameter, Value, 25, 0.1
MetaData, TestRecord.EntryPoint, true
MetaData, TestRecord.RecordTime, 10/13/2025 15:56:17
MetaData, TestRecord.TestTarget, 
MetaData, TestRecord.IterationIndex, 5
MetaData, TestRecord.Preservation, true
MetaData, TestRecord.Flag, 
MetaData, TestRecord.Remarks, 
MetaData, TestRecord.LinkKey, 33b7c8fa-25e9-44eb-979c-23032bb8eac7
MetaData, TestRecord.Parameters, 
Dimension1, 741, 741
Dimension2, 1, 1
DataName, V1, I1
DataValue, 0, 4.2951500000000004E-10
DataValue, 0.01, 1.05928E-07
DataValue, 0.02, 2.16186E-07
DataValue, 0.03, 3.27349E-07
DataValue, 0.04, 4.45477E-07
DataValue, 0.05, 5.67099E-07
DataValue, 0.06, 6.9810799999999994E-07
DataValue, 0.07, 8.33418E-07
DataValue, 0.08, 9.8146E-07
DataValue, 0.09, 1.134854E-06
DataValue, 0.1, 1.3036100000000002E-06
DataValue, 0.11, 1.4812500000000002E-06
DataValue, 0.12, 1.66565E-06
DataValue, 0.13, 1.8716400000000003E-06
DataValue, 0.14, 2.08252E-06
DataValue, 0.15, 2.2897900000000002E-06
DataValue, 0.16, 2.51588E-06
DataValue, 0.17, 2.7716900000000002E-06
DataValue, 0.18, 3.0214400000000002E-06
DataValue, 0.19, 3.3212300000000005E-06
DataValue, 0.2, 3.6168100000000005E-06
DataValue, 0.21, 3.9351700000000005E-06
DataValue, 0.22, 4.24934E-06
DataValue, 0.23, 4.61269E-06
DataValue, 0.24, 4.9682200000000007E-06
DataValue, 0.25, 5.3811300000000004E-06
DataValue, 0.26, 5.77416E-06
DataValue, 0.27, 6.2175100000000009E-06
DataValue, 0.28, 6.69201E-06
DataValue, 0.29, 7.1118200000000008E-06
DataValue, 0.3, 7.6054200000000006E-06
DataValue, 0.31, 8.12415E-06
DataValue, 0.32, 8.7268000000000009E-06
DataValue, 0.33, 9.3626500000000009E-06
DataValue, 0.34, 9.9639500000000014E-06
DataValue, 0.35000000000000003, 1.0600480000000002E-05
DataValue, 0.36, 1.1321300000000001E-05
DataValue, 0.37, 1.20726E-05
DataValue, 0.38, 1.29571E-05
DataValue, 0.39, 1.37342E-05
DataValue, 0.4, 1.40746E-05
DataValue, 0.41000000000000003, 1.4945400000000001E-05
DataValue, 0.42, 1.59451E-05
DataValue, 0.43, 1.77147E-05
DataValue, 0.44, 2.06718E-05
DataValue, 0.45, 2.15969E-05
DataValue, 0.46, 2.22489E-05
DataValue, 0.47000000000000003, 2.39252E-05
DataValue, 0.48, 2.92291E-05
DataValue, 0.49, 3.1041E-05
DataValue, 0.5, 3.3098E-05
DataValue, 0.51, 3.66555E-05
DataValue, 0.52, 3.82806E-05
DataValue, 0.53, 4.0827E-05
DataValue, 0.54, 4.16101E-05
DataValue, 0.55, 3.90339E-05
DataValue, 0.56, 4.13606E-05
DataValue, 0.57000000000000006, 4.28522E-05
DataValue, 0.58, 4.63732E-05
DataValue, 0.59, 5.43229E-05
DataValue, 0.6, 6.5902200000000007E-05
DataValue, 0.61, 7.13328E-05
DataValue, 0.62, 7.94168E-05
DataValue, 0.63, 0.0001000006
DataValue, 0.64, 0.0001000005
DataValue, 0.65, 0.0001000005
DataValue, 0.66, 0.0001000005
DataValue, 0.67, 0.0001000005
DataValue, 0.68, 0.0001000005
DataValue, 0.69000000000000006, 0.0001000005
DataValue, 0.70000000000000007, 0.0001000006
DataValue, 0.71, 0.0001000005
DataValue, 0.72, 0.0001000005
DataValue, 0.73, 0.0001000005
DataValue, 0.74, 0.0001000005
DataValue, 0.75, 0.0001000005
DataValue, 0.76, 0.0001000006
DataValue, 0.77, 0.0001000005
DataValue, 0.78, 0.0001000005
DataValue, 0.79, 0.0001000005
DataValue, 0.8, 0.0001000005
DataValue, 0.81, 0.0001000005
DataValue, 0.82000000000000006, 0.0001000005
DataValue, 0.83000000000000007, 0.0001000005
DataValue, 0.84, 0.0001000005
DataValue, 0.85, 0.0001000005
DataValue, 0.86, 0.0001000006
DataValue, 0.87, 0.0001000005
DataValue, 0.88, 0.0001000005
DataValue, 0.89, 0.0001000004
DataValue, 0.9, 0.0001000005
DataValue, 0.91, 0.0001000005
DataValue, 0.92, 0.0001000004
DataValue, 0.93, 0.0001000005
DataValue, 0.94000000000000006, 0.0001000005
DataValue, 0.95000000000000007, 0.0001000004
DataValue, 0.96, 0.0001000005
DataValue, 0.97, 0.0001000005
DataValue, 0.98, 0.0001000004
DataValue, 0.99, 0.0001000005
DataValue, 1, 0.0001000005
DataValue, 1.01, 0.0001000005
DataValue, 1.02, 0.0001000005
DataValue, 1.03, 0.0001000004
DataValue, 1.04, 0.0001000005
DataValue, 1.05, 0.0001000005
DataValue, 1.06, 0.0001000005
DataValue, 1.07, 0.0001000005
DataValue, 1.08, 0.0001000005
DataValue, 1.09, 0.0001000005
DataValue, 1.1, 0.0001000005
DataValue, 1.11, 0.0001000005
DataValue, 1.12, 0.0001000005
DataValue, 1.1300000000000001, 0.0001000005
DataValue, 1.1400000000000001, 0.0001000006
DataValue, 1.1500000000000001, 0.0001000005
DataValue, 1.16, 0.0001000004
DataValue, 1.17, 0.0001000005
DataValue, 1.18, 0.0001000004
DataValue, 1.19, 0.0001000005
DataValue, 1.2, 0.0001000005
DataValue, 1.21, 0.0001000005
DataValue, 1.22, 0.0001000005
DataValue, 1.23, 0.0001000005
DataValue, 1.24, 0.0001000005
DataValue, 1.25, 0.0001000005
DataValue, 1.26, 0.0001000005
DataValue, 1.27, 0.0001000006
DataValue, 1.28, 0.0001000005
DataValue, 1.29, 0.0001000005
DataValue, 1.3, 0.0001000005
DataValue, 1.31, 0.0001000005
DataValue, 1.32, 0.0001000004
DataValue, 1.33, 0.0001000005
DataValue, 1.34, 0.0001000005
DataValue, 1.35, 0.0001000006
DataValue, 1.36, 0.0001000005
DataValue, 1.37, 0.0001000005
DataValue, 1.3800000000000001, 0.0001000005
DataValue, 1.3900000000000001, 0.0001000005
DataValue, 1.4000000000000001, 0.0001000006
DataValue, 1.41, 0.0001000006
DataValue, 1.42, 0.0001000005
DataValue, 1.43, 0.0001000005
DataValue, 1.44, 0.0001000005
DataValue, 1.45, 0.0001000004
DataValue, 1.46, 0.0001000005
DataValue, 1.47, 0.0001000005
DataValue, 1.48, 0.0001000005
DataValue, 1.49, 0.0001000005
DataValue, 1.5, 0.0001000005
DataValue, 1.51, 0.0001000005
DataValue, 1.52, 0.0001000005
DataValue, 1.53, 0.0001000004
DataValue, 1.54, 0.0001000005
DataValue, 1.55, 0.0001000005
DataValue, 1.56, 0.0001000005
DataValue, 1.57, 0.0001000004
DataValue, 1.58, 0.0001000004
DataValue, 1.59, 0.0001000006
DataValue, 1.6, 0.0001000005
DataValue, 1.61, 0.0001000005
DataValue, 1.62, 0.0001000004
DataValue, 1.6300000000000001, 0.0001000005
DataValue, 1.6400000000000001, 0.0001000004
DataValue, 1.6500000000000001, 0.0001000005
DataValue, 1.6600000000000001, 0.0001000004
DataValue, 1.67, 0.0001000006
DataValue, 1.68, 0.0001000004
DataValue, 1.69, 0.0001000005
DataValue, 1.7, 0.0001000005
DataValue, 1.71, 0.0001000005
DataValue, 1.72, 0.0001000005
DataValue, 1.73, 0.0001000006
DataValue, 1.74, 0.0001000005
DataValue, 1.75, 0.0001000005
DataValue, 1.76, 0.0001000005
DataValue, 1.77, 0.0001000005
DataValue, 1.78, 0.0001000005
DataValue, 1.79, 0.0001000005
DataValue, 1.8, 0.0001000005
DataValue, 1.81, 0.0001000005
DataValue, 1.82, 0.0001000005
DataValue, 1.83, 0.0001000005
DataValue, 1.84, 0.0001000005
DataValue, 1.85, 0.0001000005
DataValue, 1.86, 0.0001000005
DataValue, 1.87, 0.0001000005
DataValue, 1.8800000000000001, 0.0001000004
DataValue, 1.8900000000000001, 0.0001000005
DataValue, 1.9000000000000001, 0.0001000005
DataValue, 1.9100000000000001, 0.0001000004
DataValue, 1.92, 0.0001000005
DataValue, 1.93, 0.0001000006
DataValue, 1.94, 0.0001000005
DataValue, 1.95, 0.0001000005
DataValue, 1.96, 0.0001000006
DataValue, 1.97, 0.0001000005
DataValue, 1.98, 0.0001000005
DataValue, 1.99, 0.0001000005
DataValue, 2, 0.0001000005
DataValue, 2.0100000000000002, 0.0001000005
DataValue, 2.02, 0.0001000005
DataValue, 2.0300000000000002, 0.0001000005
DataValue, 2.04, 0.0001000005
DataValue, 2.05, 0.0001000005
DataValue, 2.06, 0.0001000005
DataValue, 2.07, 0.0001000006
DataValue, 2.08, 0.0001000005
DataValue, 2.09, 0.0001000005
DataValue, 2.1, 0.0001000005
DataValue, 2.11, 0.0001000006
DataValue, 2.12, 0.0001000005
DataValue, 2.13, 0.0001000006
DataValue, 2.14, 0.0001000005
DataValue, 2.15, 0.0001000006
DataValue, 2.16, 0.0001000005
DataValue, 2.17, 0.0001000006
DataValue, 2.18, 0.0001000006
DataValue, 2.19, 0.0001000005
DataValue, 2.2, 0.0001000006
DataValue, 2.21, 0.0001000005
DataValue, 2.22, 0.0001000005
DataValue, 2.23, 0.0001000005
DataValue, 2.24, 0.0001000006
DataValue, 2.25, 0.0001000004
DataValue, 2.2600000000000002, 0.0001000005
DataValue, 2.27, 0.0001000005
DataValue, 2.2800000000000002, 0.0001000006
DataValue, 2.29, 0.0001000006
DataValue, 2.3000000000000003, 0.0001000005
DataValue, 2.31, 0.0001000005
DataValue, 2.32, 0.0001000005
DataValue, 2.33, 0.0001000005
DataValue, 2.34, 0.0001000006
DataValue, 2.35, 0.0001000005
DataValue, 2.36, 0.0001000006
DataValue, 2.37, 0.0001000005
DataValue, 2.38, 0.0001000005
DataValue, 2.39, 0.0001000005
DataValue, 2.4, 0.0001000005
DataValue, 2.41, 0.0001000006
DataValue, 2.42, 0.0001000005
DataValue, 2.43, 0.0001000006
DataValue, 2.44, 0.0001000005
DataValue, 2.45, 0.0001000006
DataValue, 2.46, 0.0001000005
DataValue, 2.47, 0.0001000005
DataValue, 2.48, 0.0001000004
DataValue, 2.49, 0.0001000005
DataValue, 2.5, 0.0001000005
DataValue, 2.5100000000000002, 0.0001000004
DataValue, 2.52, 0.0001000005
DataValue, 2.5300000000000002, 0.0001000005
DataValue, 2.54, 0.0001000005
DataValue, 2.5500000000000003, 0.0001000006
DataValue, 2.56, 0.0001000005
DataValue, 2.57, 0.0001000006
DataValue, 2.58, 0.0001000005
DataValue, 2.59, 0.0001000006
DataValue, 2.6, 0.0001000006
DataValue, 2.61, 0.0001000005
DataValue, 2.62, 0.0001000006
DataValue, 2.63, 0.0001000005
DataValue, 2.64, 0.0001000006
DataValue, 2.65, 0.0001000005
DataValue, 2.66, 0.0001000006
DataValue, 2.67, 0.0001000006
DataValue, 2.68, 0.0001000005
DataValue, 2.69, 0.0001000005
DataValue, 2.7, 0.0001000007
DataValue, 2.71, 0.0001000005
DataValue, 2.72, 0.0001000006
DataValue, 2.73, 0.0001000006
DataValue, 2.74, 0.0001000006
DataValue, 2.75, 0.0001000006
DataValue, 2.7600000000000002, 0.0001000006
DataValue, 2.77, 0.0001000006
DataValue, 2.7800000000000002, 0.0001000005
DataValue, 2.79, 0.0001000006
DataValue, 2.8000000000000003, 0.0001000006
DataValue, 2.81, 0.0001000006
DataValue, 2.82, 0.0001000005
DataValue, 2.83, 0.0001000005
DataValue, 2.84, 0.0001000005
DataValue, 2.85, 0.0001000006
DataValue, 2.86, 0.0001000006
DataValue, 2.87, 0.0001000006
DataValue, 2.88, 0.0001000006
DataValue, 2.89, 0.0001000005
DataValue, 2.9, 0.0001000006
DataValue, 2.91, 0.0001000005
DataValue, 2.92, 0.0001000006
DataValue, 2.93, 0.0001000005
DataValue, 2.94, 0.0001000005
DataValue, 2.95, 0.0001000005
DataValue, 2.96, 0.0001000005
DataValue, 2.97, 0.0001000005
DataValue, 2.98, 0.0001000005
DataValue, 2.99, 0.0001000005
DataValue, 3, 0.0001000006
DataValue, 2.99, 0.0001000006
DataValue, 2.98, 0.0001000005
DataValue, 2.97, 0.0001000005
DataValue, 2.96, 0.0001000005
DataValue, 2.95, 0.0001000004
DataValue, 2.94, 0.0001000005
DataValue, 2.93, 0.0001000006
DataValue, 2.92, 0.0001000005
DataValue, 2.91, 0.0001000005
DataValue, 2.9, 0.0001000006
DataValue, 2.89, 0.0001000005
DataValue, 2.88, 0.0001000005
DataValue, 2.87, 0.0001000005
DataValue, 2.86, 0.0001000006
DataValue, 2.85, 0.0001000005
DataValue, 2.84, 0.0001000005
DataValue, 2.83, 0.0001000005
DataValue, 2.82, 0.0001000006
DataValue, 2.81, 0.0001000005
DataValue, 2.8000000000000003, 0.0001000006
DataValue, 2.79, 0.0001000005
DataValue, 2.7800000000000002, 0.0001000006
DataValue, 2.77, 0.0001000006
DataValue, 2.7600000000000002, 0.0001000005
DataValue, 2.75, 0.0001000005
DataValue, 2.74, 0.0001000005
DataValue, 2.73, 0.0001000005
DataValue, 2.72, 0.0001000005
DataValue, 2.71, 0.0001000005
DataValue, 2.7, 0.0001000006
DataValue, 2.69, 0.0001000005
DataValue, 2.68, 0.0001000005
DataValue, 2.67, 0.0001000005
DataValue, 2.66, 0.0001000005
DataValue, 2.65, 0.0001000005
DataValue, 2.64, 0.0001000005
DataValue, 2.63, 0.0001000005
DataValue, 2.62, 0.0001000005
DataValue, 2.61, 0.0001000006
DataValue, 2.6, 0.0001000005
DataValue, 2.59, 0.0001000006
DataValue, 2.58, 0.0001000005
DataValue, 2.57, 0.0001000005
DataValue, 2.56, 0.0001000006
DataValue, 2.5500000000000003, 0.0001000005
DataValue, 2.54, 0.0001000005
DataValue, 2.5300000000000002, 0.0001000006
DataValue, 2.52, 0.0001000005
DataValue, 2.5100000000000002, 0.0001000005
DataValue, 2.5, 0.0001000005
DataValue, 2.49, 0.0001000006
DataValue, 2.48, 0.0001000005
DataValue, 2.47, 0.0001000006
DataValue, 2.46, 0.0001000005
DataValue, 2.45, 0.0001000005
DataValue, 2.44, 0.0001000005
DataValue, 2.43, 0.0001000005
DataValue, 2.42, 0.0001000006
DataValue, 2.41, 0.0001000006
DataValue, 2.4, 0.0001000005
DataValue, 2.39, 0.0001000004
DataValue, 2.38, 0.0001000005
DataValue, 2.37, 0.0001000005
DataValue, 2.36, 0.0001000005
DataValue, 2.35, 0.0001000005
DataValue, 2.34, 0.0001000004
DataValue, 2.33, 0.0001000005
DataValue, 2.32, 0.0001000005
DataValue, 2.31, 0.0001000005
DataValue, 2.3000000000000003, 0.0001000005
DataValue, 2.29, 0.0001000005
DataValue, 2.2800000000000002, 0.0001000004
DataValue, 2.27, 0.0001000005
DataValue, 2.2600000000000002, 0.0001000006
DataValue, 2.25, 0.0001000005
DataValue, 2.24, 0.0001000005
DataValue, 2.23, 0.0001000005
DataValue, 2.22, 0.0001000005
DataValue, 2.21, 0.0001000006
DataValue, 2.2, 0.0001000005
DataValue, 2.19, 0.0001000005
DataValue, 2.18, 0.0001000005
DataValue, 2.17, 0.0001000005
DataValue, 2.16, 0.0001000004
DataValue, 2.15, 0.0001000005
DataValue, 2.14, 0.0001000005
DataValue, 2.13, 0.0001000005
DataValue, 2.12, 0.0001000005
DataValue, 2.11, 0.0001000005
DataValue, 2.1, 0.0001000005
DataValue, 2.09, 0.0001000005
DataValue, 2.08, 0.0001000005
DataValue, 2.07, 0.0001000004
DataValue, 2.06, 0.0001000004
DataValue, 2.05, 0.0001000004
DataValue, 2.04, 0.0001000004
DataValue, 2.0300000000000002, 0.0001000005
DataValue, 2.02, 0.0001000004
DataValue, 2.0100000000000002, 0.0001000006
DataValue, 2, 0.0001000005
DataValue, 1.99, 0.0001000005
DataValue, 1.98, 0.0001000005
DataValue, 1.97, 0.0001000004
DataValue, 1.96, 0.0001000005
DataValue, 1.95, 0.0001000005
DataValue, 1.94, 0.0001000005
DataValue, 1.93, 0.0001000005
DataValue, 1.92, 0.0001000006
DataValue, 1.9100000000000001, 0.0001000004
DataValue, 1.9000000000000001, 0.0001000005
DataValue, 1.8900000000000001, 0.0001000006
DataValue, 1.8800000000000001, 0.0001000006
DataValue, 1.87, 0.0001000005
DataValue, 1.86, 0.0001000006
DataValue, 1.85, 0.0001000005
DataValue, 1.84, 0.0001000005
DataValue, 1.83, 0.0001000004
DataValue, 1.82, 0.0001000005
DataValue, 1.81, 0.0001000004
DataValue, 1.8, 0.0001000005
DataValue, 1.79, 0.0001000005
DataValue, 1.78, 0.0001000005
DataValue, 1.77, 0.0001000006
DataValue, 1.76, 0.0001000005
DataValue, 1.75, 0.0001000005
DataValue, 1.74, 0.0001000005
DataValue, 1.73, 0.0001000005
DataValue, 1.72, 0.0001000005
DataValue, 1.71, 0.0001000006
DataValue, 1.7, 0.0001000005
DataValue, 1.69, 0.0001000004
DataValue, 1.68, 0.0001000005
DataValue, 1.67, 0.0001000005
DataValue, 1.6600000000000001, 0.0001000005
DataValue, 1.6500000000000001, 0.0001000005
DataValue, 1.6400000000000001, 0.0001000005
DataValue, 1.6300000000000001, 0.0001000005
DataValue, 1.62, 0.0001000005
DataValue, 1.61, 0.0001000005
DataValue, 1.6, 0.0001000004
DataValue, 1.59, 0.0001000005
DataValue, 1.58, 0.0001000005
DataValue, 1.57, 0.0001000005
DataValue, 1.56, 0.0001000005
DataValue, 1.55, 0.0001000005
DataValue, 1.54, 0.0001000005
DataValue, 1.53, 0.0001000005
DataValue, 1.52, 0.0001000004
DataValue, 1.51, 0.0001000005
DataValue, 1.5, 0.0001000005
DataValue, 1.49, 0.0001000006
DataValue, 1.48, 0.0001000006
DataValue, 1.47, 0.0001000005
DataValue, 1.46, 0.0001000005
DataValue, 1.45, 0.0001000005
DataValue, 1.44, 0.0001000005
DataValue, 1.43, 0.0001000004
DataValue, 1.42, 0.0001000006
DataValue, 1.41, 0.0001000005
DataValue, 1.4000000000000001, 0.0001000005
DataValue, 1.3900000000000001, 0.0001000005
DataValue, 1.3800000000000001, 0.0001000006
DataValue, 1.37, 0.0001000005
DataValue, 1.36, 0.0001000006
DataValue, 1.35, 0.0001000006
DataValue, 1.34, 0.0001000006
DataValue, 1.33, 0.0001000005
DataValue, 1.32, 0.0001000005
DataValue, 1.31, 0.0001000005
DataValue, 1.3, 0.0001000005
DataValue, 1.29, 0.0001000005
DataValue, 1.28, 0.0001000005
DataValue, 1.27, 0.0001000005
DataValue, 1.26, 0.0001000005
DataValue, 1.25, 0.0001000005
DataValue, 1.24, 0.0001000005
DataValue, 1.23, 0.0001000005
DataValue, 1.22, 0.0001000005
DataValue, 1.21, 0.0001000005
DataValue, 1.2, 0.0001000005
DataValue, 1.19, 0.0001000006
DataValue, 1.18, 0.0001000005
DataValue, 1.17, 0.0001000005
DataValue, 1.16, 0.0001000005
DataValue, 1.1500000000000001, 0.0001000005
DataValue, 1.1400000000000001, 0.0001000006
DataValue, 1.1300000000000001, 0.0001000005
DataValue, 1.12, 0.0001000005
DataValue, 1.11, 0.0001000005
DataValue, 1.1, 0.0001000005
DataValue, 1.09, 0.0001000004
DataValue, 1.08, 0.0001000005
DataValue, 1.07, 0.0001000005
DataValue, 1.06, 0.0001000005
DataValue, 1.05, 0.0001000005
DataValue, 1.04, 0.0001000005
DataValue, 1.03, 0.0001000006
DataValue, 1.02, 0.0001000005
DataValue, 1.01, 0.0001000005
DataValue, 1, 0.0001000005
DataValue, 0.99, 0.0001000005
DataValue, 0.98, 0.0001000005
DataValue, 0.97, 0.0001000005
DataValue, 0.96, 0.0001000005
DataValue, 0.95000000000000007, 0.0001000005
DataValue, 0.94000000000000006, 0.0001000004
DataValue, 0.93, 0.0001000006
DataValue, 0.92, 0.0001000006
DataValue, 0.91, 0.0001000005
DataValue, 0.9, 0.0001000006
DataValue, 0.89, 0.0001000005
DataValue, 0.88, 0.0001000005
DataValue, 0.87, 0.0001000006
DataValue, 0.86, 0.0001000006
DataValue, 0.85, 0.0001000005
DataValue, 0.84, 0.0001000006
DataValue, 0.83000000000000007, 0.0001000006
DataValue, 0.82000000000000006, 0.0001000005
DataValue, 0.81, 0.0001000005
DataValue, 0.8, 0.0001000006
DataValue, 0.79, 0.0001000005
DataValue, 0.78, 0.0001000005
DataValue, 0.77, 0.0001000005
DataValue, 0.76, 0.0001000005
DataValue, 0.75, 0.0001000005
DataValue, 0.74, 0.0001000005
DataValue, 0.73, 0.0001000006
DataValue, 0.72, 0.0001000005
DataValue, 0.71, 0.0001000005
DataValue, 0.70000000000000007, 0.0001000005
DataValue, 0.69000000000000006, 0.0001000005
DataValue, 0.68, 0.0001000004
DataValue, 0.67, 0.0001000005
DataValue, 0.66, 0.0001000005
DataValue, 0.65, 0.0001000006
DataValue, 0.64, 0.0001000005
DataValue, 0.63, 0.0001000005
DataValue, 0.62, 0.0001000004
DataValue, 0.61, 0.0001000006
DataValue, 0.6, 0.0001000005
DataValue, 0.59, 0.0001000005
DataValue, 0.58, 0.0001000005
DataValue, 0.57000000000000006, 0.0001000005
DataValue, 0.56, 9.97435E-05
DataValue, 0.55, 9.2894200000000009E-05
DataValue, 0.54, 8.93138E-05
DataValue, 0.53, 8.43246E-05
DataValue, 0.52, 8.00706E-05
DataValue, 0.51, 7.56625E-05
DataValue, 0.5, 7.16846E-05
DataValue, 0.49, 6.74582E-05
DataValue, 0.48, 6.35455E-05
DataValue, 0.47000000000000003, 5.9775500000000004E-05
DataValue, 0.46, 5.64529E-05
DataValue, 0.45, 5.3105E-05
DataValue, 0.44, 5.01876E-05
DataValue, 0.43, 4.6647900000000004E-05
DataValue, 0.42, 4.41118E-05
DataValue, 0.41000000000000003, 4.15205E-05
DataValue, 0.4, 3.9215600000000004E-05
DataValue, 0.39, 3.6885000000000003E-05
DataValue, 0.38, 3.49068E-05
DataValue, 0.37, 3.33918E-05
DataValue, 0.36, 3.1498900000000004E-05
DataValue, 0.35000000000000003, 2.9721200000000003E-05
DataValue, 0.34, 2.80126E-05
DataValue, 0.33, 2.6437600000000002E-05
DataValue, 0.32, 2.4944700000000002E-05
DataValue, 0.31, 2.3410600000000002E-05
DataValue, 0.3, 2.19808E-05
DataValue, 0.29, 2.07832E-05
DataValue, 0.28, 1.96691E-05
DataValue, 0.27, 1.84755E-05
DataValue, 0.26, 1.72754E-05
DataValue, 0.25, 1.62351E-05
DataValue, 0.24, 1.53189E-05
DataValue, 0.23, 1.4230900000000001E-05
DataValue, 0.22, 1.3406E-05
