
SetupTitle, SET+RESET
ApplicationTest, DoubleSweep_IV, Public
TestParameter, Name, Port1, Port2, Vstart1, Vstop1, Vstep1, Compliance1, Vstart2, Vstop2, Vstep2, Compliance2, IntegTime, HoldTime, DelayTime, MinRange
TestParameter, Value, SMU1:MP	MPSMU, SMU2:MP	MPSMU, 0, 3, 0.01, 0.0001, 0, -0.8, 0.01, 0.1, MEDIUM, 0, 0, 1nA
DutParameter, Name, Temp, CCMax
DutParameter, Value, 25, 0.1
MetaData, TestRecord.EntryPoint, true
MetaData, TestRecord.RecordTime, 10/13/2025 15:53:04
MetaData, TestRecord.TestTarget, 
MetaData, TestRecord.IterationIndex, 5
MetaData, TestRecord.Preservation, true
MetaData, TestRecord.Flag, 
MetaData, TestRecord.Remarks, 
MetaData, TestRecord.LinkKey, e50a3d14-fbc3-4cb2-90c9-c61b8c528981
MetaData, TestRecord.Parameters, 
Dimension1, 761, 761
Dimension2, 1, 1
DataName, V1, I1
DataValue, 0, 1.84271E-09
DataValue, 0.01, 4.32794E-07
DataValue, 0.02, 8.71756E-07
DataValue, 0.03, 1.3039300000000001E-06
DataValue, 0.04, 1.7480300000000002E-06
DataValue, 0.05, 2.19555E-06
DataValue, 0.06, 2.6413400000000003E-06
DataValue, 0.07, 3.0862200000000003E-06
DataValue, 0.08, 3.5612800000000004E-06
DataValue, 0.09, 4.0303200000000007E-06
DataValue, 0.1, 4.4891200000000005E-06
DataValue, 0.11, 4.9560600000000005E-06
DataValue, 0.12, 5.44082E-06
DataValue, 0.13, 5.9219800000000005E-06
DataValue, 0.14, 6.3993500000000008E-06
DataValue, 0.15, 6.9330800000000009E-06
DataValue, 0.16, 7.444290000000001E-06
DataValue, 0.17, 8.0047200000000012E-06
DataValue, 0.18, 8.56917E-06
DataValue, 0.19, 9.1809300000000009E-06
DataValue, 0.2, 9.9910700000000012E-06
DataValue, 0.21, 1.0659080000000001E-05
DataValue, 0.22, 1.133132E-05
DataValue, 0.23, 1.20605E-05
DataValue, 0.24, 1.28523E-05
DataValue, 0.25, 1.3345400000000001E-05
DataValue, 0.26, 1.38898E-05
DataValue, 0.27, 1.46586E-05
DataValue, 0.28, 1.56062E-05
DataValue, 0.29, 1.6701300000000002E-05
DataValue, 0.3, 1.76909E-05
DataValue, 0.31, 1.84429E-05
DataValue, 0.32, 1.93739E-05
DataValue, 0.33, 2.0167100000000002E-05
DataValue, 0.34, 2.12247E-05
DataValue, 0.35000000000000003, 2.1052600000000002E-05
DataValue, 0.36, 2.22042E-05
DataValue, 0.37, 2.28537E-05
DataValue, 0.38, 2.39425E-05
DataValue, 0.39, 2.5700600000000003E-05
DataValue, 0.4, 2.6760600000000003E-05
DataValue, 0.41000000000000003, 2.68828E-05
DataValue, 0.42, 2.70099E-05
DataValue, 0.43, 2.81908E-05
DataValue, 0.44, 2.9496700000000002E-05
DataValue, 0.45, 3.1248200000000003E-05
DataValue, 0.46, 3.3428E-05
DataValue, 0.47000000000000003, 3.4453300000000004E-05
DataValue, 0.48, 3.55681E-05
DataValue, 0.49, 3.6876300000000005E-05
DataValue, 0.5, 3.82999E-05
DataValue, 0.51, 4.02772E-05
DataValue, 0.52, 4.15313E-05
DataValue, 0.53, 4.29136E-05
DataValue, 0.54, 4.1749400000000004E-05
DataValue, 0.55, 4.03825E-05
DataValue, 0.56, 4.1443300000000003E-05
DataValue, 0.57000000000000006, 4.34439E-05
DataValue, 0.58, 4.97947E-05
DataValue, 0.59, 5.00397E-05
DataValue, 0.6, 5.04544E-05
DataValue, 0.61, 5.16503E-05
DataValue, 0.62, 5.4173000000000005E-05
DataValue, 0.63, 5.4306100000000005E-05
DataValue, 0.64, 5.7980200000000004E-05
DataValue, 0.65, 7.1024E-05
DataValue, 0.66, 9.49645E-05
DataValue, 0.67, 0.0001000003
DataValue, 0.68, 0.0001000004
DataValue, 0.69000000000000006, 0.0001000004
DataValue, 0.70000000000000007, 0.0001000004
DataValue, 0.71, 0.0001000003
DataValue, 0.72, 0.0001000003
DataValue, 0.73, 0.0001000004
DataValue, 0.74, 0.0001000005
DataValue, 0.75, 0.0001000004
DataValue, 0.76, 0.0001000004
DataValue, 0.77, 0.0001000003
DataValue, 0.78, 0.0001000003
DataValue, 0.79, 0.0001000003
DataValue, 0.8, 0.0001000004
DataValue, 0.81, 0.0001000004
DataValue, 0.82000000000000006, 0.0001000004
DataValue, 0.83000000000000007, 0.0001000004
DataValue, 0.84, 0.0001000004
DataValue, 0.85, 0.0001000004
DataValue, 0.86, 0.0001000003
DataValue, 0.87, 0.0001000003
DataValue, 0.88, 0.0001000003
DataValue, 0.89, 0.0001000004
DataValue, 0.9, 0.0001000003
DataValue, 0.91, 0.0001000003
DataValue, 0.92, 0.0001000004
DataValue, 0.93, 0.0001000004
DataValue, 0.94000000000000006, 0.0001000004
DataValue, 0.95000000000000007, 0.0001000003
DataValue, 0.96, 0.0001000003
DataValue, 0.97, 0.0001000004
DataValue, 0.98, 0.0001000003
DataValue, 0.99, 0.0001000003
DataValue, 1, 0.0001000003
DataValue, 1.01, 0.0001000004
DataValue, 1.02, 0.0001000003
DataValue, 1.03, 0.0001000004
DataValue, 1.04, 0.0001000004
DataValue, 1.05, 0.0001000004
DataValue, 1.06, 0.0001000004
DataValue, 1.07, 0.0001000005
DataValue, 1.08, 0.0001000004
DataValue, 1.09, 0.0001000004
DataValue, 1.1, 0.0001000004
DataValue, 1.11, 0.0001000003
DataValue, 1.12, 0.0001000004
DataValue, 1.1300000000000001, 0.0001000004
DataValue, 1.1400000000000001, 0.0001000004
DataValue, 1.1500000000000001, 0.0001000004
DataValue, 1.16, 0.0001000005
DataValue, 1.17, 0.0001000005
DataValue, 1.18, 0.0001000005
DataValue, 1.19, 0.0001000005
DataValue, 1.2, 0.0001000004
DataValue, 1.21, 0.0001000004
DataValue, 1.22, 0.0001000005
DataValue, 1.23, 0.0001000003
DataValue, 1.24, 0.0001000004
DataValue, 1.25, 0.0001000005
DataValue, 1.26, 0.0001000004
DataValue, 1.27, 0.0001000004
DataValue, 1.28, 0.0001000005
DataValue, 1.29, 0.0001000004
DataValue, 1.3, 0.0001000003
DataValue, 1.31, 0.0001000004
DataValue, 1.32, 0.0001000005
DataValue, 1.33, 0.0001000005
DataValue, 1.34, 0.0001000004
DataValue, 1.35, 0.0001000005
DataValue, 1.36, 0.0001000004
DataValue, 1.37, 0.0001000005
DataValue, 1.3800000000000001, 0.0001000003
DataValue, 1.3900000000000001, 0.0001000004
DataValue, 1.4000000000000001, 0.0001000003
DataValue, 1.41, 0.0001000004
DataValue, 1.42, 0.0001000005
DataValue, 1.43, 0.0001000004
DataValue, 1.44, 0.0001000005
DataValue, 1.45, 0.0001000004
DataValue, 1.46, 0.0001000004
DataValue, 1.47, 0.0001000004
DataValue, 1.48, 0.0001000004
DataValue, 1.49, 0.0001000004
DataValue, 1.5, 0.0001000003
DataValue, 1.51, 0.0001000005
DataValue, 1.52, 0.0001000003
DataValue, 1.53, 0.0001000005
DataValue, 1.54, 0.0001000004
DataValue, 1.55, 0.0001000005
DataValue, 1.56, 0.0001000005
DataValue, 1.57, 0.0001000004
DataValue, 1.58, 0.0001000005
DataValue, 1.59, 0.0001000003
DataValue, 1.6, 0.0001000005
DataValue, 1.61, 0.0001000005
DataValue, 1.62, 0.0001000004
DataValue, 1.6300000000000001, 0.0001000004
DataValue, 1.6400000000000001, 0.0001000005
DataValue, 1.6500000000000001, 0.0001000004
DataValue, 1.6600000000000001, 0.0001000005
DataValue, 1.67, 0.0001000004
DataValue, 1.68, 0.0001000004
DataValue, 1.69, 0.0001000005
DataValue, 1.7, 0.0001000004
DataValue, 1.71, 0.0001000004
DataValue, 1.72, 0.0001000005
DataValue, 1.73, 0.0001000004
DataValue, 1.74, 0.0001000003
DataValue, 1.75, 0.0001000004
DataValue, 1.76, 0.0001000005
DataValue, 1.77, 0.0001000004
DataValue, 1.78, 0.0001000004
DataValue, 1.79, 0.0001000004
DataValue, 1.8, 0.0001000004
DataValue, 1.81, 0.0001000005
DataValue, 1.82, 0.0001000004
DataValue, 1.83, 0.0001000004
DataValue, 1.84, 0.0001000005
DataValue, 1.85, 0.0001000005
DataValue, 1.86, 0.0001000005
DataValue, 1.87, 0.0001000004
DataValue, 1.8800000000000001, 0.0001000004
DataValue, 1.8900000000000001, 0.0001000005
DataValue, 1.9000000000000001, 0.0001000004
DataValue, 1.9100000000000001, 0.0001000004
DataValue, 1.92, 0.0001000004
DataValue, 1.93, 0.0001000004
DataValue, 1.94, 0.0001000005
DataValue, 1.95, 0.0001000005
DataValue, 1.96, 0.0001000005
DataValue, 1.97, 0.0001000004
DataValue, 1.98, 0.0001000004
DataValue, 1.99, 0.0001000004
DataValue, 2, 0.0001000004
DataValue, 2.0100000000000002, 0.0001000005
DataValue, 2.02, 0.0001000005
DataValue, 2.0300000000000002, 0.0001000005
DataValue, 2.04, 0.0001000004
DataValue, 2.05, 0.0001000002
DataValue, 2.06, 0.0001000004
DataValue, 2.07, 0.0001000005
DataValue, 2.08, 0.0001000005
DataValue, 2.09, 0.0001000004
DataValue, 2.1, 0.0001000004
DataValue, 2.11, 0.0001000003
DataValue, 2.12, 0.0001000004
DataValue, 2.13, 0.0001000003
DataValue, 2.14, 0.0001000004
DataValue, 2.15, 0.0001000004
DataValue, 2.16, 0.0001000005
DataValue, 2.17, 0.0001000005
DataValue, 2.18, 0.0001000004
DataValue, 2.19, 0.0001000005
DataValue, 2.2, 0.0001000003
DataValue, 2.21, 0.0001000004
DataValue, 2.22, 0.0001000005
DataValue, 2.23, 0.0001000004
DataValue, 2.24, 0.0001000003
DataValue, 2.25, 0.0001000003
DataValue, 2.2600000000000002, 0.0001000004
DataValue, 2.27, 0.0001000003
DataValue, 2.2800000000000002, 0.0001000004
DataValue, 2.29, 0.0001000004
DataValue, 2.3000000000000003, 0.0001000004
DataValue, 2.31, 0.0001000004
DataValue, 2.32, 0.0001000005
DataValue, 2.33, 0.0001000004
DataValue, 2.34, 0.0001000005
DataValue, 2.35, 0.0001000005
DataValue, 2.36, 0.0001000004
DataValue, 2.37, 0.0001000003
DataValue, 2.38, 0.0001000005
DataValue, 2.39, 0.0001000004
DataValue, 2.4, 0.0001000005
DataValue, 2.41, 0.0001000004
DataValue, 2.42, 0.0001000004
DataValue, 2.43, 0.0001000004
DataValue, 2.44, 0.0001000004
DataValue, 2.45, 0.0001000005
DataValue, 2.46, 0.0001000005
DataValue, 2.47, 0.0001000004
DataValue, 2.48, 0.0001000005
DataValue, 2.49, 0.0001000003
DataValue, 2.5, 0.0001000005
DataValue, 2.5100000000000002, 0.0001000004
DataValue, 2.52, 0.0001000003
DataValue, 2.5300000000000002, 0.0001000004
DataValue, 2.54, 0.0001000005
DataValue, 2.5500000000000003, 0.0001000004
DataValue, 2.56, 0.0001000006
DataValue, 2.57, 0.0001000005
DataValue, 2.58, 0.0001000005
DataValue, 2.59, 0.0001000004
DataValue, 2.6, 0.0001000005
DataValue, 2.61, 0.0001000005
DataValue, 2.62, 0.0001000003
DataValue, 2.63, 0.0001000004
DataValue, 2.64, 0.0001000004
DataValue, 2.65, 0.0001000005
DataValue, 2.66, 0.0001000004
DataValue, 2.67, 0.0001000004
DataValue, 2.68, 0.0001000004
DataValue, 2.69, 0.0001000004
DataValue, 2.7, 0.0001000005
DataValue, 2.71, 0.0001000004
DataValue, 2.72, 0.0001000004
DataValue, 2.73, 0.0001000004
DataValue, 2.74, 0.0001000004
DataValue, 2.75, 0.0001000005
DataValue, 2.7600000000000002, 0.0001000005
DataValue, 2.77, 0.0001000005
DataValue, 2.7800000000000002, 0.0001000005
DataValue, 2.79, 0.0001000005
DataValue, 2.8000000000000003, 0.0001000005
DataValue, 2.81, 0.0001000004
DataValue, 2.82, 0.0001000004
DataValue, 2.83, 0.0001000005
DataValue, 2.84, 0.0001000005
DataValue, 2.85, 0.0001000004
DataValue, 2.86, 0.0001000005
DataValue, 2.87, 0.0001000004
DataValue, 2.88, 0.0001000005
DataValue, 2.89, 0.0001000004
DataValue, 2.9, 0.0001000004
DataValue, 2.91, 0.0001000005
DataValue, 2.92, 0.0001000005
DataValue, 2.93, 0.0001000005
DataValue, 2.94, 0.0001000004
DataValue, 2.95, 0.0001000004
DataValue, 2.96, 0.0001000005
DataValue, 2.97, 0.0001000004
DataValue, 2.98, 0.0001000004
DataValue, 2.99, 0.0001000004
DataValue, 3, 0.0001000005
DataValue, 2.99, 0.0001000005
DataValue, 2.98, 0.0001000005
DataValue, 2.97, 0.0001000005
DataValue, 2.96, 0.0001000006
DataValue, 2.95, 0.0001000005
DataValue, 2.94, 0.0001000005
DataValue, 2.93, 0.0001000005
DataValue, 2.92, 0.0001000005
DataValue, 2.91, 0.0001000004
DataValue, 2.9, 0.0001000005
DataValue, 2.89, 0.0001000004
DataValue, 2.88, 0.0001000004
DataValue, 2.87, 0.0001000004
DataValue, 2.86, 0.0001000004
DataValue, 2.85, 0.0001000005
DataValue, 2.84, 0.0001000004
DataValue, 2.83, 0.0001000004
DataValue, 2.82, 0.0001000004
DataValue, 2.81, 0.0001000004
DataValue, 2.8000000000000003, 0.0001000005
DataValue, 2.79, 0.0001000005
DataValue, 2.7800000000000002, 0.0001000004
DataValue, 2.77, 0.0001000005
DataValue, 2.7600000000000002, 0.0001000004
DataValue, 2.75, 0.0001000005
DataValue, 2.74, 0.0001000004
DataValue, 2.73, 0.0001000005
DataValue, 2.72, 0.0001000004
DataValue, 2.71, 0.0001000005
DataValue, 2.7, 0.0001000006
DataValue, 2.69, 0.0001000005
DataValue, 2.68, 0.0001000004
DataValue, 2.67, 0.0001000005
DataValue, 2.66, 0.0001000005
DataValue, 2.65, 0.0001000004
DataValue, 2.64, 0.0001000004
DataValue, 2.63, 0.0001000005
DataValue, 2.62, 0.0001000005
DataValue, 2.61, 0.0001000005
DataValue, 2.6, 0.0001000004
DataValue, 2.59, 0.0001000004
DataValue, 2.58, 0.0001000005
DataValue, 2.57, 0.0001000003
DataValue, 2.56, 0.0001000003
DataValue, 2.5500000000000003, 0.0001000004
DataValue, 2.54, 0.0001000004
DataValue, 2.5300000000000002, 0.0001000004
DataValue, 2.52, 0.0001000005
DataValue, 2.5100000000000002, 0.0001000006
DataValue, 2.5, 0.0001000004
DataValue, 2.49, 0.0001000005
DataValue, 2.48, 0.0001000004
DataValue, 2.47, 0.0001000005
DataValue, 2.46, 0.0001000004
DataValue, 2.45, 0.0001000004
DataValue, 2.44, 0.0001000005
DataValue, 2.43, 0.0001000005
DataValue, 2.42, 0.0001000005
DataValue, 2.41, 0.0001000005
DataValue, 2.4, 0.0001000005
DataValue, 2.39, 0.0001000005
DataValue, 2.38, 0.0001000004
DataValue, 2.37, 0.0001000004
DataValue, 2.36, 0.0001000005
DataValue, 2.35, 0.0001000005
DataValue, 2.34, 0.0001000004
DataValue, 2.33, 0.0001000005
DataValue, 2.32, 0.0001000004
DataValue, 2.31, 0.0001000005
DataValue, 2.3000000000000003, 0.0001000004
DataValue, 2.29, 0.0001000004
DataValue, 2.2800000000000002, 0.0001000005
DataValue, 2.27, 0.0001000005
DataValue, 2.2600000000000002, 0.0001000005
DataValue, 2.25, 0.0001000004
DataValue, 2.24, 0.0001000004
DataValue, 2.23, 0.0001000004
DataValue, 2.22, 0.0001000005
DataValue, 2.21, 0.0001000005
DataValue, 2.2, 0.0001000005
DataValue, 2.19, 0.0001000004
DataValue, 2.18, 0.0001000005
DataValue, 2.17, 0.0001000005
DataValue, 2.16, 0.0001000004
DataValue, 2.15, 0.0001000004
DataValue, 2.14, 0.0001000004
DataValue, 2.13, 0.0001000005
DataValue, 2.12, 0.0001000005
DataValue, 2.11, 0.0001000004
DataValue, 2.1, 0.0001000005
DataValue, 2.09, 0.0001000004
DataValue, 2.08, 0.0001000005
DataValue, 2.07, 0.0001000004
DataValue, 2.06, 0.0001000005
DataValue, 2.05, 0.0001000003
DataValue, 2.04, 0.0001000005
DataValue, 2.0300000000000002, 0.0001000005
DataValue, 2.02, 0.0001000004
DataValue, 2.0100000000000002, 0.0001000004
DataValue, 2, 0.0001000004
DataValue, 1.99, 0.0001000004
DataValue, 1.98, 0.0001000004
DataValue, 1.97, 0.0001000004
DataValue, 1.96, 0.0001000005
DataValue, 1.95, 0.0001000004
DataValue, 1.94, 0.0001000005
DataValue, 1.93, 0.0001000005
DataValue, 1.92, 0.0001000005
DataValue, 1.9100000000000001, 0.0001000003
DataValue, 1.9000000000000001, 0.0001000004
DataValue, 1.8900000000000001, 0.0001000005
DataValue, 1.8800000000000001, 0.0001000005
DataValue, 1.87, 0.0001000004
DataValue, 1.86, 0.0001000004
DataValue, 1.85, 0.0001000004
DataValue, 1.84, 0.0001000004
DataValue, 1.83, 0.0001000005
DataValue, 1.82, 0.0001000004
DataValue, 1.81, 0.0001000005
DataValue, 1.8, 0.0001000005
DataValue, 1.79, 0.0001000005
DataValue, 1.78, 0.0001000004
DataValue, 1.77, 0.0001000005
DataValue, 1.76, 0.0001000003
DataValue, 1.75, 0.0001000004
DataValue, 1.74, 0.0001000005
DataValue, 1.73, 0.0001000003
DataValue, 1.72, 0.0001000005
DataValue, 1.71, 0.0001000005
DataValue, 1.7, 0.0001000004
DataValue, 1.69, 0.0001000004
DataValue, 1.68, 0.0001000003
DataValue, 1.67, 0.0001000004
DataValue, 1.6600000000000001, 0.0001000005
DataValue, 1.6500000000000001, 0.0001000005
DataValue, 1.6400000000000001, 0.0001000004
DataValue, 1.6300000000000001, 0.0001000003
DataValue, 1.62, 0.0001000004
DataValue, 1.61, 0.0001000004
DataValue, 1.6, 0.0001000005
DataValue, 1.59, 0.0001000004
DataValue, 1.58, 0.0001000005
DataValue, 1.57, 0.0001000003
DataValue, 1.56, 0.0001000005
DataValue, 1.55, 0.0001000004
DataValue, 1.54, 0.0001000004
DataValue, 1.53, 0.0001000004
DataValue, 1.52, 0.0001000005
DataValue, 1.51, 0.0001000003
DataValue, 1.5, 0.0001000005
DataValue, 1.49, 0.0001000005
DataValue, 1.48, 0.0001000003
DataValue, 1.47, 0.0001000005
DataValue, 1.46, 0.0001000004
DataValue, 1.45, 0.0001000004
DataValue, 1.44, 0.0001000004
DataValue, 1.43, 0.0001000005
DataValue, 1.42, 0.0001000004
DataValue, 1.41, 0.0001000004
DataValue, 1.4000000000000001, 0.0001000004
DataValue, 1.3900000000000001, 0.0001000004
DataValue, 1.3800000000000001, 0.0001000005
DataValue, 1.37, 0.0001000005
DataValue, 1.36, 0.0001000005
DataValue, 1.35, 0.0001000004
DataValue, 1.34, 0.0001000004
DataValue, 1.33, 0.0001000005
DataValue, 1.32, 0.0001000003
DataValue, 1.31, 0.0001000005
DataValue, 1.3, 0.0001000005
DataValue, 1.29, 0.0001000004
DataValue, 1.28, 0.0001000004
DataValue, 1.27, 0.0001000004
DataValue, 1.26, 0.0001000005
DataValue, 1.25, 0.0001000004
DataValue, 1.24, 0.0001000004
DataValue, 1.23, 0.0001000004
DataValue, 1.22, 0.0001000004
DataValue, 1.21, 0.0001000005
DataValue, 1.2, 0.0001000004
DataValue, 1.19, 0.0001000004
DataValue, 1.18, 0.0001000004
DataValue, 1.17, 0.0001000004
DataValue, 1.16, 0.0001000004
DataValue, 1.1500000000000001, 0.0001000004
DataValue, 1.1400000000000001, 0.0001000004
DataValue, 1.1300000000000001, 0.0001000005
DataValue, 1.12, 0.0001000005
DataValue, 1.11, 0.0001000004
DataValue, 1.1, 0.0001000005
DataValue, 1.09, 0.0001000004
DataValue, 1.08, 0.0001000005
DataValue, 1.07, 0.0001000004
DataValue, 1.06, 0.0001000004
DataValue, 1.05, 0.0001000004
DataValue, 1.04, 0.0001000004
DataValue, 1.03, 0.0001000004
DataValue, 1.02, 0.0001000005
DataValue, 1.01, 0.0001000005
DataValue, 1, 0.0001000004
DataValue, 0.99, 0.0001000004
DataValue, 0.98, 0.0001000004
DataValue, 0.97, 0.0001000004
DataValue, 0.96, 0.0001000005
DataValue, 0.95000000000000007, 0.0001000003
DataValue, 0.94000000000000006, 0.0001000004
DataValue, 0.93, 0.0001000003
DataValue, 0.92, 0.0001000005
DataValue, 0.91, 0.0001000005
DataValue, 0.9, 0.0001000004
DataValue, 0.89, 0.0001000005
DataValue, 0.88, 0.0001000003
DataValue, 0.87, 0.0001000005
DataValue, 0.86, 0.0001000004
DataValue, 0.85, 0.0001000004
DataValue, 0.84, 0.0001000004
DataValue, 0.83000000000000007, 0.0001000005
DataValue, 0.82000000000000006, 0.0001000004
DataValue, 0.81, 0.0001000004
DataValue, 0.8, 0.0001000003
DataValue, 0.79, 0.0001000005
DataValue, 0.78, 0.0001000004
DataValue, 0.77, 0.0001000005
DataValue, 0.76, 0.0001000005
DataValue, 0.75, 0.0001000005
DataValue, 0.74, 0.0001000005
DataValue, 0.73, 0.0001000005
DataValue, 0.72, 0.0001000004
DataValue, 0.71, 0.0001000004
DataValue, 0.70000000000000007, 0.0001000005
DataValue, 0.69000000000000006, 0.0001000005
DataValue, 0.68, 0.0001000005
DataValue, 0.67, 0.0001000005
DataValue, 0.66, 0.0001000005
DataValue, 0.65, 0.0001000005
DataValue, 0.64, 0.0001000005
DataValue, 0.63, 0.0001000003
DataValue, 0.62, 0.0001000005
DataValue, 0.61, 0.0001000005
DataValue, 0.6, 0.0001000004
DataValue, 0.59, 0.0001000003
DataValue, 0.58, 9.69549E-05
DataValue, 0.57000000000000006, 9.24076E-05
DataValue, 0.56, 8.65164E-05
DataValue, 0.55, 8.14663E-05
DataValue, 0.54, 7.67964E-05
DataValue, 0.53, 7.16683E-05
DataValue, 0.52, 6.79877E-05
DataValue, 0.51, 6.36859E-05
DataValue, 0.5, 5.97116E-05
DataValue, 0.49, 5.61648E-05
DataValue, 0.48, 5.27997E-05
DataValue, 0.47000000000000003, 4.9478900000000005E-05
DataValue, 0.46, 4.64061E-05
DataValue, 0.45, 4.3509E-05
DataValue, 0.44, 4.09018E-05
DataValue, 0.43, 3.84047E-05
DataValue, 0.42, 3.60642E-05
DataValue, 0.41000000000000003, 3.3844100000000003E-05
DataValue, 0.4, 3.18071E-05
DataValue, 0.39, 2.98656E-05
DataValue, 0.38, 2.8114200000000003E-05
DataValue, 0.37, 2.64369E-05
DataValue, 0.36, 2.48138E-05
DataValue, 0.35000000000000003, 2.3300800000000002E-05
DataValue, 0.34, 2.1897700000000002E-05
DataValue, 0.33, 2.0576400000000002E-05
DataValue, 0.32, 1.9301900000000002E-05
DataValue, 0.31, 1.80886E-05
DataValue, 0.3, 1.69705E-05
DataValue, 0.29, 1.5894700000000002E-05
DataValue, 0.28, 1.4862100000000001E-05
DataValue, 0.27, 1.3904000000000001E-05
DataValue, 0.26, 1.29693E-05
DataValue, 0.25, 1.2106100000000001E-05
