
SetupTitle, SET+RESET
ApplicationTest, DoubleSweep_IV, Public
TestParameter, Name, Port1, Port2, Vstart1, Vstop1, Vstep1, Compliance1, Vstart2, Vstop2, Vstep2, Compliance2, IntegTime, HoldTime, DelayTime, MinRange
TestParameter, Value, SMU1:MP	MPSMU, SMU2:MP	MPSMU, 0, 3, 0.01, 0.0001, 0, -0.9, 0.01, 0.1, MEDIUM, 0, 0, 1nA
DutParameter, Name, Temp, CCMax
DutParameter, Value, 25, 0.1
MetaData, TestRecord.EntryPoint, true
MetaData, TestRecord.RecordTime, 10/13/2025 15:50:03
MetaData, TestRecord.TestTarget, 
MetaData, TestRecord.IterationIndex, 5
MetaData, TestRecord.Preservation, true
MetaData, TestRecord.Flag, 
MetaData, TestRecord.Remarks, 
MetaData, TestRecord.LinkKey, 77c1de57-c8cc-47ec-bac6-1e5b5c6d81af
MetaData, TestRecord.Parameters, 
Dimension1, 781, 781
Dimension2, 1, 1
DataName, V1, I1
DataValue, 0, 1.07032E-09
DataValue, 0.01, 2.05376E-07
DataValue, 0.02, 4.19211E-07
DataValue, 0.03, 6.33659E-07
DataValue, 0.04, 8.55961E-07
DataValue, 0.05, 1.085941E-06
DataValue, 0.06, 1.32184E-06
DataValue, 0.07, 1.5628500000000002E-06
DataValue, 0.08, 1.8126400000000003E-06
DataValue, 0.09, 2.07178E-06
DataValue, 0.1, 2.3409300000000003E-06
DataValue, 0.11, 2.61849E-06
DataValue, 0.12, 2.90161E-06
DataValue, 0.13, 3.2051300000000004E-06
DataValue, 0.14, 3.4986800000000004E-06
DataValue, 0.15, 3.8252200000000008E-06
DataValue, 0.16, 4.1429000000000006E-06
DataValue, 0.17, 4.47117E-06
DataValue, 0.18, 4.80848E-06
DataValue, 0.19, 5.1684200000000009E-06
DataValue, 0.2, 5.52581E-06
DataValue, 0.21, 5.8968300000000004E-06
DataValue, 0.22, 6.3262900000000009E-06
DataValue, 0.23, 6.717120000000001E-06
DataValue, 0.24, 7.1108100000000004E-06
DataValue, 0.25, 7.517350000000001E-06
DataValue, 0.26, 7.97144E-06
DataValue, 0.27, 8.307010000000001E-06
DataValue, 0.28, 8.68107E-06
DataValue, 0.29, 9.0941200000000013E-06
DataValue, 0.3, 9.42507E-06
DataValue, 0.31, 9.8854700000000018E-06
DataValue, 0.32, 1.038332E-05
DataValue, 0.33, 1.082953E-05
DataValue, 0.34, 1.131613E-05
DataValue, 0.35000000000000003, 1.1693E-05
DataValue, 0.36, 1.22148E-05
DataValue, 0.37, 1.27612E-05
DataValue, 0.38, 1.2981600000000001E-05
DataValue, 0.39, 1.3736E-05
DataValue, 0.4, 1.4392E-05
DataValue, 0.41000000000000003, 1.48949E-05
DataValue, 0.42, 1.56695E-05
DataValue, 0.43, 1.61076E-05
DataValue, 0.44, 1.6669E-05
DataValue, 0.45, 1.7322400000000002E-05
DataValue, 0.46, 1.79193E-05
DataValue, 0.47000000000000003, 1.85077E-05
DataValue, 0.48, 1.91297E-05
DataValue, 0.49, 1.98925E-05
DataValue, 0.5, 2.0873100000000002E-05
DataValue, 0.51, 2.1815E-05
DataValue, 0.52, 2.23494E-05
DataValue, 0.53, 2.3174200000000003E-05
DataValue, 0.54, 2.40619E-05
DataValue, 0.55, 2.57911E-05
DataValue, 0.56, 3.28135E-05
DataValue, 0.57000000000000006, 4.30809E-05
DataValue, 0.58, 4.42491E-05
DataValue, 0.59, 4.23608E-05
DataValue, 0.6, 5.02718E-05
DataValue, 0.61, 5.23418E-05
DataValue, 0.62, 5.05128E-05
DataValue, 0.63, 4.95756E-05
DataValue, 0.64, 5.5658E-05
DataValue, 0.65, 7.50042E-05
DataValue, 0.66, 0.0001000004
DataValue, 0.67, 0.0001000004
DataValue, 0.68, 0.0001000004
DataValue, 0.69000000000000006, 0.0001000004
DataValue, 0.70000000000000007, 0.0001000004
DataValue, 0.71, 0.0001000004
DataValue, 0.72, 0.0001000004
DataValue, 0.73, 0.0001000003
DataValue, 0.74, 0.0001000003
DataValue, 0.75, 0.0001000004
DataValue, 0.76, 0.0001000004
DataValue, 0.77, 0.0001000004
DataValue, 0.78, 0.0001000003
DataValue, 0.79, 0.0001000003
DataValue, 0.8, 0.0001000004
DataValue, 0.81, 0.0001000003
DataValue, 0.82000000000000006, 0.0001000003
DataValue, 0.83000000000000007, 0.0001000004
DataValue, 0.84, 0.0001000004
DataValue, 0.85, 0.0001000004
DataValue, 0.86, 0.0001000003
DataValue, 0.87, 0.0001000004
DataValue, 0.88, 0.0001000005
DataValue, 0.89, 0.0001000004
DataValue, 0.9, 0.0001000003
DataValue, 0.91, 0.0001000003
DataValue, 0.92, 0.0001000003
DataValue, 0.93, 0.0001000003
DataValue, 0.94000000000000006, 0.0001000004
DataValue, 0.95000000000000007, 0.0001000004
DataValue, 0.96, 0.0001000004
DataValue, 0.97, 0.0001000003
DataValue, 0.98, 0.0001000003
DataValue, 0.99, 0.0001000004
DataValue, 1, 0.0001000003
DataValue, 1.01, 0.0001000005
DataValue, 1.02, 0.0001000003
DataValue, 1.03, 0.0001000004
DataValue, 1.04, 0.0001000004
DataValue, 1.05, 0.0001000003
DataValue, 1.06, 0.0001000004
DataValue, 1.07, 0.0001000003
DataValue, 1.08, 0.0001000004
DataValue, 1.09, 0.0001000003
DataValue, 1.1, 0.0001000003
DataValue, 1.11, 0.0001000003
DataValue, 1.12, 0.0001000005
DataValue, 1.1300000000000001, 0.0001000005
DataValue, 1.1400000000000001, 0.0001000004
DataValue, 1.1500000000000001, 0.0001000004
DataValue, 1.16, 0.0001000004
DataValue, 1.17, 0.0001000004
DataValue, 1.18, 0.0001000004
DataValue, 1.19, 0.0001000004
DataValue, 1.2, 0.0001000004
DataValue, 1.21, 0.0001000004
DataValue, 1.22, 0.0001000003
DataValue, 1.23, 0.0001000004
DataValue, 1.24, 0.0001000003
DataValue, 1.25, 0.0001000004
DataValue, 1.26, 0.0001000004
DataValue, 1.27, 0.0001000003
DataValue, 1.28, 0.0001000004
DataValue, 1.29, 0.0001000005
DataValue, 1.3, 0.0001000004
DataValue, 1.31, 0.0001000004
DataValue, 1.32, 0.0001000004
DataValue, 1.33, 0.0001000003
DataValue, 1.34, 0.0001000004
DataValue, 1.35, 0.0001000004
DataValue, 1.36, 0.0001000003
DataValue, 1.37, 0.0001000004
DataValue, 1.3800000000000001, 0.0001000004
DataValue, 1.3900000000000001, 0.0001000004
DataValue, 1.4000000000000001, 0.0001000003
DataValue, 1.41, 0.0001000004
DataValue, 1.42, 0.0001000004
DataValue, 1.43, 0.0001000004
DataValue, 1.44, 0.0001000003
DataValue, 1.45, 0.0001000005
DataValue, 1.46, 0.0001000005
DataValue, 1.47, 0.0001000005
DataValue, 1.48, 0.0001000004
DataValue, 1.49, 0.0001000005
DataValue, 1.5, 0.0001000005
DataValue, 1.51, 0.0001000004
DataValue, 1.52, 0.0001000004
DataValue, 1.53, 0.0001000004
DataValue, 1.54, 0.0001000005
DataValue, 1.55, 0.0001000004
DataValue, 1.56, 0.0001000004
DataValue, 1.57, 0.0001000004
DataValue, 1.58, 0.0001000003
DataValue, 1.59, 0.0001000005
DataValue, 1.6, 0.0001000005
DataValue, 1.61, 0.0001000005
DataValue, 1.62, 0.0001000005
DataValue, 1.6300000000000001, 0.0001000005
DataValue, 1.6400000000000001, 0.0001000005
DataValue, 1.6500000000000001, 0.0001000005
DataValue, 1.6600000000000001, 0.0001000005
DataValue, 1.67, 0.0001000004
DataValue, 1.68, 0.0001000005
DataValue, 1.69, 0.0001000005
DataValue, 1.7, 0.0001000005
DataValue, 1.71, 0.0001000004
DataValue, 1.72, 0.0001000005
DataValue, 1.73, 0.0001000004
DataValue, 1.74, 0.0001000004
DataValue, 1.75, 0.0001000004
DataValue, 1.76, 0.0001000005
DataValue, 1.77, 0.0001000005
DataValue, 1.78, 0.0001000004
DataValue, 1.79, 0.0001000005
DataValue, 1.8, 0.0001000004
DataValue, 1.81, 0.0001000004
DataValue, 1.82, 0.0001000005
DataValue, 1.83, 0.0001000005
DataValue, 1.84, 0.0001000005
DataValue, 1.85, 0.0001000005
DataValue, 1.86, 0.0001000005
DataValue, 1.87, 0.0001000005
DataValue, 1.8800000000000001, 0.0001000005
DataValue, 1.8900000000000001, 0.0001000005
DataValue, 1.9000000000000001, 0.0001000006
DataValue, 1.9100000000000001, 0.0001000005
DataValue, 1.92, 0.0001000004
DataValue, 1.93, 0.0001000005
DataValue, 1.94, 0.0001000005
DataValue, 1.95, 0.0001000005
DataValue, 1.96, 0.0001000005
DataValue, 1.97, 0.0001000005
DataValue, 1.98, 0.0001000005
DataValue, 1.99, 0.0001000005
DataValue, 2, 0.0001000005
DataValue, 2.0100000000000002, 0.0001000005
DataValue, 2.02, 0.0001000005
DataValue, 2.0300000000000002, 0.0001000005
DataValue, 2.04, 0.0001000005
DataValue, 2.05, 0.0001000005
DataValue, 2.06, 0.0001000005
DataValue, 2.07, 0.0001000005
DataValue, 2.08, 0.0001000005
DataValue, 2.09, 0.0001000005
DataValue, 2.1, 0.0001000005
DataValue, 2.11, 0.0001000005
DataValue, 2.12, 0.0001000005
DataValue, 2.13, 0.0001000005
DataValue, 2.14, 0.0001000004
DataValue, 2.15, 0.0001000005
DataValue, 2.16, 0.0001000004
DataValue, 2.17, 0.0001000005
DataValue, 2.18, 0.0001000005
DataValue, 2.19, 0.0001000005
DataValue, 2.2, 0.0001000004
DataValue, 2.21, 0.0001000005
DataValue, 2.22, 0.0001000005
DataValue, 2.23, 0.0001000005
DataValue, 2.24, 0.0001000005
DataValue, 2.25, 0.0001000005
DataValue, 2.2600000000000002, 0.0001000005
DataValue, 2.27, 0.0001000005
DataValue, 2.2800000000000002, 0.0001000005
DataValue, 2.29, 0.0001000005
DataValue, 2.3000000000000003, 0.0001000005
DataValue, 2.31, 0.0001000006
DataValue, 2.32, 0.0001000005
DataValue, 2.33, 0.0001000005
DataValue, 2.34, 0.0001000005
DataValue, 2.35, 0.0001000005
DataValue, 2.36, 0.0001000005
DataValue, 2.37, 0.0001000005
DataValue, 2.38, 0.0001000005
DataValue, 2.39, 0.0001000005
DataValue, 2.4, 0.0001000005
DataValue, 2.41, 0.0001000006
DataValue, 2.42, 0.0001000006
DataValue, 2.43, 0.0001000005
DataValue, 2.44, 0.0001000005
DataValue, 2.45, 0.0001000005
DataValue, 2.46, 0.0001000005
DataValue, 2.47, 0.0001000005
DataValue, 2.48, 0.0001000004
DataValue, 2.49, 0.0001000005
DataValue, 2.5, 0.0001000006
DataValue, 2.5100000000000002, 0.0001000005
DataValue, 2.52, 0.0001000003
DataValue, 2.5300000000000002, 0.0001000005
DataValue, 2.54, 0.0001000004
DataValue, 2.5500000000000003, 0.0001000005
DataValue, 2.56, 0.0001000005
DataValue, 2.57, 0.0001000006
DataValue, 2.58, 0.0001000005
DataValue, 2.59, 0.0001000005
DataValue, 2.6, 0.0001000005
DataValue, 2.61, 0.0001000005
DataValue, 2.62, 0.0001000005
DataValue, 2.63, 0.0001000005
DataValue, 2.64, 0.0001000005
DataValue, 2.65, 0.0001000005
DataValue, 2.66, 0.0001000005
DataValue, 2.67, 0.0001000005
DataValue, 2.68, 0.0001000005
DataValue, 2.69, 0.0001000005
DataValue, 2.7, 0.0001000005
DataValue, 2.71, 0.0001000005
DataValue, 2.72, 0.0001000005
DataValue, 2.73, 0.0001000005
DataValue, 2.74, 0.0001000005
DataValue, 2.75, 0.0001000005
DataValue, 2.7600000000000002, 0.0001000004
DataValue, 2.77, 0.0001000006
DataValue, 2.7800000000000002, 0.0001000006
DataValue, 2.79, 0.0001000005
DataValue, 2.8000000000000003, 0.0001000005
DataValue, 2.81, 0.0001000005
DataValue, 2.82, 0.0001000005
DataValue, 2.83, 0.0001000004
DataValue, 2.84, 0.0001000005
DataValue, 2.85, 0.0001000005
DataValue, 2.86, 0.0001000005
DataValue, 2.87, 0.0001000005
DataValue, 2.88, 0.0001000005
DataValue, 2.89, 0.0001000005
DataValue, 2.9, 0.0001000004
DataValue, 2.91, 0.0001000006
DataValue, 2.92, 0.0001000005
DataValue, 2.93, 0.0001000006
DataValue, 2.94, 0.0001000005
DataValue, 2.95, 0.0001000004
DataValue, 2.96, 0.0001000005
DataValue, 2.97, 0.0001000005
DataValue, 2.98, 0.0001000004
DataValue, 2.99, 0.0001000005
DataValue, 3, 0.0001000005
DataValue, 2.99, 0.0001000005
DataValue, 2.98, 0.0001000005
DataValue, 2.97, 0.0001000005
DataValue, 2.96, 0.0001000005
DataValue, 2.95, 0.0001000005
DataValue, 2.94, 0.0001000005
DataValue, 2.93, 0.0001000005
DataValue, 2.92, 0.0001000005
DataValue, 2.91, 0.0001000005
DataValue, 2.9, 0.0001000005
DataValue, 2.89, 0.0001000005
DataValue, 2.88, 0.0001000004
DataValue, 2.87, 0.0001000005
DataValue, 2.86, 0.0001000004
DataValue, 2.85, 0.0001000005
DataValue, 2.84, 0.0001000005
DataValue, 2.83, 0.0001000006
DataValue, 2.82, 0.0001000005
DataValue, 2.81, 0.0001000005
DataValue, 2.8000000000000003, 0.0001000005
DataValue, 2.79, 0.0001000005
DataValue, 2.7800000000000002, 0.0001000005
DataValue, 2.77, 0.0001000004
DataValue, 2.7600000000000002, 0.0001000005
DataValue, 2.75, 0.0001000006
DataValue, 2.74, 0.0001000005
DataValue, 2.73, 0.0001000005
DataValue, 2.72, 0.0001000005
DataValue, 2.71, 0.0001000005
DataValue, 2.7, 0.0001000005
DataValue, 2.69, 0.0001000005
DataValue, 2.68, 0.0001000005
DataValue, 2.67, 0.0001000005
DataValue, 2.66, 0.0001000006
DataValue, 2.65, 0.0001000005
DataValue, 2.64, 0.0001000005
DataValue, 2.63, 0.0001000005
DataValue, 2.62, 0.0001000005
DataValue, 2.61, 0.0001000006
DataValue, 2.6, 0.0001000005
DataValue, 2.59, 0.0001000005
DataValue, 2.58, 0.0001000004
DataValue, 2.57, 0.0001000005
DataValue, 2.56, 0.0001000004
DataValue, 2.5500000000000003, 0.0001000005
DataValue, 2.54, 0.0001000004
DataValue, 2.5300000000000002, 0.0001000006
DataValue, 2.52, 0.0001000005
DataValue, 2.5100000000000002, 0.0001000005
DataValue, 2.5, 0.0001000005
DataValue, 2.49, 0.0001000005
DataValue, 2.48, 0.0001000005
DataValue, 2.47, 0.0001000005
DataValue, 2.46, 0.0001000005
DataValue, 2.45, 0.0001000005
DataValue, 2.44, 0.0001000005
DataValue, 2.43, 0.0001000005
DataValue, 2.42, 0.0001000006
DataValue, 2.41, 0.0001000005
DataValue, 2.4, 0.0001000005
DataValue, 2.39, 0.0001000005
DataValue, 2.38, 0.0001000005
DataValue, 2.37, 0.0001000005
DataValue, 2.36, 0.0001000004
DataValue, 2.35, 0.0001000004
DataValue, 2.34, 0.0001000005
DataValue, 2.33, 0.0001000005
DataValue, 2.32, 0.0001000005
DataValue, 2.31, 0.0001000006
DataValue, 2.3000000000000003, 0.0001000005
DataValue, 2.29, 0.0001000005
DataValue, 2.2800000000000002, 0.0001000005
DataValue, 2.27, 0.0001000005
DataValue, 2.2600000000000002, 0.0001000005
DataValue, 2.25, 0.0001000005
DataValue, 2.24, 0.0001000004
DataValue, 2.23, 0.0001000005
DataValue, 2.22, 0.0001000005
DataValue, 2.21, 0.0001000005
DataValue, 2.2, 0.0001000005
DataValue, 2.19, 0.0001000004
DataValue, 2.18, 0.0001000004
DataValue, 2.17, 0.0001000004
DataValue, 2.16, 0.0001000005
DataValue, 2.15, 0.0001000005
DataValue, 2.14, 0.0001000005
DataValue, 2.13, 0.0001000004
DataValue, 2.12, 0.0001000004
DataValue, 2.11, 0.0001000005
DataValue, 2.1, 0.0001000005
DataValue, 2.09, 0.0001000005
DataValue, 2.08, 0.0001000004
DataValue, 2.07, 0.0001000005
DataValue, 2.06, 0.0001000004
DataValue, 2.05, 0.0001000005
DataValue, 2.04, 0.0001000004
DataValue, 2.0300000000000002, 0.0001000005
DataValue, 2.02, 0.0001000004
DataValue, 2.0100000000000002, 0.0001000004
DataValue, 2, 0.0001000005
DataValue, 1.99, 0.0001000005
DataValue, 1.98, 0.0001000005
DataValue, 1.97, 0.0001000005
DataValue, 1.96, 0.0001000005
DataValue, 1.95, 0.0001000005
DataValue, 1.94, 0.0001000005
DataValue, 1.93, 0.0001000004
DataValue, 1.92, 0.0001000005
DataValue, 1.9100000000000001, 0.0001000005
DataValue, 1.9000000000000001, 0.0001000004
DataValue, 1.8900000000000001, 0.0001000004
DataValue, 1.8800000000000001, 0.0001000004
DataValue, 1.87, 0.0001000004
DataValue, 1.86, 0.0001000004
DataValue, 1.85, 0.0001000004
DataValue, 1.84, 0.0001000005
DataValue, 1.83, 0.0001000004
DataValue, 1.82, 0.0001000005
DataValue, 1.81, 0.0001000005
DataValue, 1.8, 0.0001000005
DataValue, 1.79, 0.0001000004
DataValue, 1.78, 0.0001000005
DataValue, 1.77, 0.0001000005
DataValue, 1.76, 0.0001000004
DataValue, 1.75, 0.0001000005
DataValue, 1.74, 0.0001000005
DataValue, 1.73, 0.0001000005
DataValue, 1.72, 0.0001000005
DataValue, 1.71, 0.0001000003
DataValue, 1.7, 0.0001000005
DataValue, 1.69, 0.0001000004
DataValue, 1.68, 0.0001000004
DataValue, 1.67, 0.0001000005
DataValue, 1.6600000000000001, 0.0001000005
DataValue, 1.6500000000000001, 0.0001000005
DataValue, 1.6400000000000001, 0.0001000005
DataValue, 1.6300000000000001, 0.0001000005
DataValue, 1.62, 0.0001000005
DataValue, 1.61, 0.0001000004
DataValue, 1.6, 0.0001000004
DataValue, 1.59, 0.0001000005
DataValue, 1.58, 0.0001000004
DataValue, 1.57, 0.0001000005
DataValue, 1.56, 0.0001000005
DataValue, 1.55, 0.0001000005
DataValue, 1.54, 0.0001000005
DataValue, 1.53, 0.0001000005
DataValue, 1.52, 0.0001000005
DataValue, 1.51, 0.0001000005
DataValue, 1.5, 0.0001000005
DataValue, 1.49, 0.0001000004
DataValue, 1.48, 0.0001000005
DataValue, 1.47, 0.0001000005
DataValue, 1.46, 0.0001000004
DataValue, 1.45, 0.0001000004
DataValue, 1.44, 0.0001000004
DataValue, 1.43, 0.0001000005
DataValue, 1.42, 0.0001000005
DataValue, 1.41, 0.0001000003
DataValue, 1.4000000000000001, 0.0001000005
DataValue, 1.3900000000000001, 0.0001000006
DataValue, 1.3800000000000001, 0.0001000005
DataValue, 1.37, 0.0001000005
DataValue, 1.36, 0.0001000004
DataValue, 1.35, 0.0001000005
DataValue, 1.34, 0.0001000003
DataValue, 1.33, 0.0001000005
DataValue, 1.32, 0.0001000003
DataValue, 1.31, 0.0001000004
DataValue, 1.3, 0.0001000004
DataValue, 1.29, 0.0001000005
DataValue, 1.28, 0.0001000005
DataValue, 1.27, 0.0001000005
DataValue, 1.26, 0.0001000004
DataValue, 1.25, 0.0001000004
DataValue, 1.24, 0.0001000005
DataValue, 1.23, 0.0001000004
DataValue, 1.22, 0.0001000004
DataValue, 1.21, 0.0001000004
DataValue, 1.2, 0.0001000005
DataValue, 1.19, 0.0001000004
DataValue, 1.18, 0.0001000005
DataValue, 1.17, 0.0001000004
DataValue, 1.16, 0.0001000004
DataValue, 1.1500000000000001, 0.0001000004
DataValue, 1.1400000000000001, 0.0001000004
DataValue, 1.1300000000000001, 0.0001000004
DataValue, 1.12, 0.0001000005
DataValue, 1.11, 0.0001000004
DataValue, 1.1, 0.0001000005
DataValue, 1.09, 0.0001000005
DataValue, 1.08, 0.0001000004
DataValue, 1.07, 0.0001000005
DataValue, 1.06, 0.0001000004
DataValue, 1.05, 0.0001000005
DataValue, 1.04, 0.0001000004
DataValue, 1.03, 0.0001000004
DataValue, 1.02, 0.0001000004
DataValue, 1.01, 0.0001000005
DataValue, 1, 0.0001000004
DataValue, 0.99, 0.0001000003
DataValue, 0.98, 0.0001000004
DataValue, 0.97, 0.0001000004
DataValue, 0.96, 0.0001000004
DataValue, 0.95000000000000007, 0.0001000004
DataValue, 0.94000000000000006, 0.0001000006
DataValue, 0.93, 0.0001000005
DataValue, 0.92, 0.0001000005
DataValue, 0.91, 0.0001000005
DataValue, 0.9, 0.0001000003
DataValue, 0.89, 0.0001000005
DataValue, 0.88, 0.0001000004
DataValue, 0.87, 0.0001000005
DataValue, 0.86, 0.0001000004
DataValue, 0.85, 0.0001000005
DataValue, 0.84, 0.0001000005
DataValue, 0.83000000000000007, 0.0001000005
DataValue, 0.82000000000000006, 0.0001000005
DataValue, 0.81, 0.0001000005
DataValue, 0.8, 0.0001000005
DataValue, 0.79, 0.0001000006
DataValue, 0.78, 0.0001000004
DataValue, 0.77, 0.0001000003
DataValue, 0.76, 0.0001000005
DataValue, 0.75, 0.0001000004
DataValue, 0.74, 0.0001000005
DataValue, 0.73, 0.0001000004
DataValue, 0.72, 0.0001000004
DataValue, 0.71, 0.0001000004
DataValue, 0.70000000000000007, 0.0001000004
DataValue, 0.69000000000000006, 0.0001000004
DataValue, 0.68, 0.0001000005
DataValue, 0.67, 0.0001000004
DataValue, 0.66, 0.0001000003
DataValue, 0.65, 0.0001000004
DataValue, 0.64, 0.0001000005
DataValue, 0.63, 0.0001000004
DataValue, 0.62, 0.0001000004
DataValue, 0.61, 0.0001000005
DataValue, 0.6, 0.0001000005
DataValue, 0.59, 0.0001000004
DataValue, 0.58, 0.0001000004
DataValue, 0.57000000000000006, 0.0001000003
DataValue, 0.56, 9.9847200000000009E-05
DataValue, 0.55, 9.47117E-05
DataValue, 0.54, 9.26075E-05
DataValue, 0.53, 8.86089E-05
DataValue, 0.52, 8.44558E-05
DataValue, 0.51, 7.78351E-05
DataValue, 0.5, 7.22264E-05
DataValue, 0.49, 6.9976000000000009E-05
DataValue, 0.48, 6.6798E-05
DataValue, 0.47000000000000003, 6.36804E-05
DataValue, 0.46, 5.9055700000000004E-05
DataValue, 0.45, 5.5906200000000004E-05
DataValue, 0.44, 5.28367E-05
DataValue, 0.43, 4.97518E-05
DataValue, 0.42, 4.69027E-05
DataValue, 0.41000000000000003, 4.41338E-05
DataValue, 0.4, 4.156E-05
DataValue, 0.39, 3.9147700000000005E-05
DataValue, 0.38, 3.68982E-05
DataValue, 0.37, 3.4685200000000005E-05
DataValue, 0.36, 3.24117E-05
DataValue, 0.35000000000000003, 3.05388E-05
DataValue, 0.34, 2.88405E-05
DataValue, 0.33, 2.67823E-05
DataValue, 0.32, 2.5083800000000002E-05
DataValue, 0.31, 2.35873E-05
DataValue, 0.3, 2.22431E-05
DataValue, 0.29, 2.07954E-05
DataValue, 0.28, 1.93617E-05
DataValue, 0.27, 1.8075000000000002E-05
DataValue, 0.26, 1.67844E-05
DataValue, 0.25, 1.56587E-05
DataValue, 0.24, 1.45123E-05
DataValue, 0.23, 1.34634E-05
DataValue, 0.22, 1.24822E-05
DataValue, 0.21, 1.15427E-05
DataValue, 0.2, 1.0651400000000001E-05
