
SetupTitle, SET+RESET
ApplicationTest, DoubleSweep_IV, Public
TestParameter, Name, Port1, Port2, Vstart1, Vstop1, Vstep1, Compliance1, Vstart2, Vstop2, Vstep2, Compliance2, IntegTime, HoldTime, DelayTime, MinRange
TestParameter, Value, SMU1:MP	MPSMU, SMU2:MP	MPSMU, 0, 3, 0.01, 0.0001, 0, -1, 0.01, 0.1, MEDIUM, 0, 0, 1nA
DutParameter, Name, Temp, CCMax
DutParameter, Value, 25, 0.1
MetaData, TestRecord.EntryPoint, true
MetaData, TestRecord.RecordTime, 10/13/2025 15:47:10
MetaData, TestRecord.TestTarget, 
MetaData, TestRecord.IterationIndex, 5
MetaData, TestRecord.Preservation, true
MetaData, TestRecord.Flag, 
MetaData, TestRecord.Remarks, 
MetaData, TestRecord.LinkKey, dea7630e-e5fd-41cb-b94f-c8b93fa30c73
MetaData, TestRecord.Parameters, 
Dimension1, 801, 801
Dimension2, 1, 1
DataName, V1, I1
DataValue, 0, 1.0558100000000001E-10
DataValue, 0.01, 2.12628E-08
DataValue, 0.02, 4.4063699999999994E-08
DataValue, 0.03, 6.6726299999999988E-08
DataValue, 0.04, 9.2727E-08
DataValue, 0.05, 1.19708E-07
DataValue, 0.06, 1.49556E-07
DataValue, 0.07, 1.84042E-07
DataValue, 0.08, 2.18113E-07
DataValue, 0.09, 2.57119E-07
DataValue, 0.1, 2.96633E-07
DataValue, 0.11, 3.44132E-07
DataValue, 0.12, 3.96083E-07
DataValue, 0.13, 4.45525E-07
DataValue, 0.14, 5.0649E-07
DataValue, 0.15, 5.67658E-07
DataValue, 0.16, 6.4512199999999995E-07
DataValue, 0.17, 7.12535E-07
DataValue, 0.18, 7.98746E-07
DataValue, 0.19, 8.78469E-07
DataValue, 0.2, 9.61676E-07
DataValue, 0.21, 1.056891E-06
DataValue, 0.22, 1.2126600000000002E-06
DataValue, 0.23, 1.3382300000000002E-06
DataValue, 0.24, 1.4667800000000002E-06
DataValue, 0.25, 1.6465000000000002E-06
DataValue, 0.26, 1.7906900000000002E-06
DataValue, 0.27, 1.9570400000000003E-06
DataValue, 0.28, 2.12964E-06
DataValue, 0.29, 2.3136400000000004E-06
DataValue, 0.3, 2.5137700000000004E-06
DataValue, 0.31, 2.7262800000000003E-06
DataValue, 0.32, 2.9181100000000003E-06
DataValue, 0.33, 3.1591500000000005E-06
DataValue, 0.34, 3.4664100000000002E-06
DataValue, 0.35000000000000003, 3.6406900000000003E-06
DataValue, 0.36, 3.90118E-06
DataValue, 0.37, 4.1557100000000006E-06
DataValue, 0.38, 4.3775000000000009E-06
DataValue, 0.39, 4.6713400000000007E-06
DataValue, 0.4, 4.75655E-06
DataValue, 0.41000000000000003, 5.0615400000000008E-06
DataValue, 0.42, 5.778880000000001E-06
DataValue, 0.43, 6.53568E-06
DataValue, 0.44, 6.8873300000000005E-06
DataValue, 0.45, 7.3422800000000011E-06
DataValue, 0.46, 7.8603000000000016E-06
DataValue, 0.47000000000000003, 8.05678E-06
DataValue, 0.48, 8.33734E-06
DataValue, 0.49, 9.41236E-06
DataValue, 0.5, 9.93296E-06
DataValue, 0.51, 1.080149E-05
DataValue, 0.52, 1.00633E-05
DataValue, 0.53, 1.08196E-05
DataValue, 0.54, 1.01294E-05
DataValue, 0.55, 1.06094E-05
DataValue, 0.56, 1.1297300000000001E-05
DataValue, 0.57000000000000006, 1.20919E-05
DataValue, 0.58, 1.41325E-05
DataValue, 0.59, 0.0001000004
DataValue, 0.6, 0.0001000004
DataValue, 0.61, 0.0001000004
DataValue, 0.62, 0.0001000003
DataValue, 0.63, 0.0001000004
DataValue, 0.64, 0.0001000004
DataValue, 0.65, 0.0001000004
DataValue, 0.66, 0.0001000003
DataValue, 0.67, 0.0001000003
DataValue, 0.68, 0.0001000004
DataValue, 0.69000000000000006, 0.0001000003
DataValue, 0.70000000000000007, 0.0001000003
DataValue, 0.71, 0.0001000004
DataValue, 0.72, 0.0001000004
DataValue, 0.73, 0.0001000004
DataValue, 0.74, 0.0001000003
DataValue, 0.75, 0.0001000003
DataValue, 0.76, 0.0001000004
DataValue, 0.77, 0.0001000004
DataValue, 0.78, 0.0001000003
DataValue, 0.79, 0.0001000004
DataValue, 0.8, 0.0001000003
DataValue, 0.81, 0.0001000004
DataValue, 0.82000000000000006, 0.0001000003
DataValue, 0.83000000000000007, 0.0001000004
DataValue, 0.84, 0.0001000004
DataValue, 0.85, 0.0001000004
DataValue, 0.86, 0.0001000004
DataValue, 0.87, 0.0001000004
DataValue, 0.88, 0.0001000004
DataValue, 0.89, 0.0001000003
DataValue, 0.9, 0.0001000004
DataValue, 0.91, 0.0001000004
DataValue, 0.92, 0.0001000004
DataValue, 0.93, 0.0001000003
DataValue, 0.94000000000000006, 0.0001000004
DataValue, 0.95000000000000007, 0.0001000004
DataValue, 0.96, 0.0001000004
DataValue, 0.97, 0.0001000004
DataValue, 0.98, 0.0001000004
DataValue, 0.99, 0.0001000003
DataValue, 1, 0.0001000003
DataValue, 1.01, 0.0001000005
DataValue, 1.02, 0.0001000004
DataValue, 1.03, 0.0001000004
DataValue, 1.04, 0.0001000004
DataValue, 1.05, 0.0001000004
DataValue, 1.06, 0.0001000005
DataValue, 1.07, 0.0001000004
DataValue, 1.08, 0.0001000003
DataValue, 1.09, 0.0001000003
DataValue, 1.1, 0.0001000005
DataValue, 1.11, 0.0001000004
DataValue, 1.12, 0.0001000003
DataValue, 1.1300000000000001, 0.0001000003
DataValue, 1.1400000000000001, 0.0001000004
DataValue, 1.1500000000000001, 0.0001000005
DataValue, 1.16, 0.0001000003
DataValue, 1.17, 0.0001000004
DataValue, 1.18, 0.0001000004
DataValue, 1.19, 0.0001000005
DataValue, 1.2, 0.0001000004
DataValue, 1.21, 0.0001000005
DataValue, 1.22, 0.0001000003
DataValue, 1.23, 0.0001000004
DataValue, 1.24, 0.0001000003
DataValue, 1.25, 0.0001000004
DataValue, 1.26, 0.0001000003
DataValue, 1.27, 0.0001000004
DataValue, 1.28, 0.0001000003
DataValue, 1.29, 0.0001000004
DataValue, 1.3, 0.0001000003
DataValue, 1.31, 0.0001000004
DataValue, 1.32, 0.0001000004
DataValue, 1.33, 0.0001000004
DataValue, 1.34, 0.0001000003
DataValue, 1.35, 0.0001000005
DataValue, 1.36, 0.0001000003
DataValue, 1.37, 0.0001000004
DataValue, 1.3800000000000001, 0.0001000004
DataValue, 1.3900000000000001, 0.0001000003
DataValue, 1.4000000000000001, 0.0001000003
DataValue, 1.41, 0.0001000005
DataValue, 1.42, 0.0001000004
DataValue, 1.43, 0.0001000004
DataValue, 1.44, 0.0001000004
DataValue, 1.45, 0.0001000003
DataValue, 1.46, 0.0001000004
DataValue, 1.47, 0.0001000003
DataValue, 1.48, 0.0001000005
DataValue, 1.49, 0.0001000004
DataValue, 1.5, 0.0001000005
DataValue, 1.51, 0.0001000004
DataValue, 1.52, 0.0001000005
DataValue, 1.53, 0.0001000004
DataValue, 1.54, 0.0001000005
DataValue, 1.55, 0.0001000005
DataValue, 1.56, 0.0001000004
DataValue, 1.57, 0.0001000005
DataValue, 1.58, 0.0001000004
DataValue, 1.59, 0.0001000005
DataValue, 1.6, 0.0001000005
DataValue, 1.61, 0.0001000004
DataValue, 1.62, 0.0001000004
DataValue, 1.6300000000000001, 0.0001000005
DataValue, 1.6400000000000001, 0.0001000005
DataValue, 1.6500000000000001, 0.0001000004
DataValue, 1.6600000000000001, 0.0001000004
DataValue, 1.67, 0.0001000005
DataValue, 1.68, 0.0001000005
DataValue, 1.69, 0.0001000005
DataValue, 1.7, 0.0001000004
DataValue, 1.71, 0.0001000003
DataValue, 1.72, 0.0001000004
DataValue, 1.73, 0.0001000005
DataValue, 1.74, 0.0001000004
DataValue, 1.75, 0.0001000004
DataValue, 1.76, 0.0001000005
DataValue, 1.77, 0.0001000005
DataValue, 1.78, 0.0001000005
DataValue, 1.79, 0.0001000005
DataValue, 1.8, 0.0001000005
DataValue, 1.81, 0.0001000005
DataValue, 1.82, 0.0001000005
DataValue, 1.83, 0.0001000005
DataValue, 1.84, 0.0001000005
DataValue, 1.85, 0.0001000006
DataValue, 1.86, 0.0001000005
DataValue, 1.87, 0.0001000005
DataValue, 1.8800000000000001, 0.0001000004
DataValue, 1.8900000000000001, 0.0001000005
DataValue, 1.9000000000000001, 0.0001000005
DataValue, 1.9100000000000001, 0.0001000005
DataValue, 1.92, 0.0001000005
DataValue, 1.93, 0.0001000005
DataValue, 1.94, 0.0001000006
DataValue, 1.95, 0.0001000004
DataValue, 1.96, 0.0001000005
DataValue, 1.97, 0.0001000006
DataValue, 1.98, 0.0001000005
DataValue, 1.99, 0.0001000005
DataValue, 2, 0.0001000004
DataValue, 2.0100000000000002, 0.0001000005
DataValue, 2.02, 0.0001000005
DataValue, 2.0300000000000002, 0.0001000005
DataValue, 2.04, 0.0001000005
DataValue, 2.05, 0.0001000005
DataValue, 2.06, 0.0001000004
DataValue, 2.07, 0.0001000005
DataValue, 2.08, 0.0001000005
DataValue, 2.09, 0.0001000005
DataValue, 2.1, 0.0001000005
DataValue, 2.11, 0.0001000005
DataValue, 2.12, 0.0001000005
DataValue, 2.13, 0.0001000004
DataValue, 2.14, 0.0001000005
DataValue, 2.15, 0.0001000005
DataValue, 2.16, 0.0001000006
DataValue, 2.17, 0.0001000004
DataValue, 2.18, 0.0001000005
DataValue, 2.19, 0.0001000005
DataValue, 2.2, 0.0001000005
DataValue, 2.21, 0.0001000005
DataValue, 2.22, 0.0001000004
DataValue, 2.23, 0.0001000005
DataValue, 2.24, 0.0001000005
DataValue, 2.25, 0.0001000005
DataValue, 2.2600000000000002, 0.0001000006
DataValue, 2.27, 0.0001000005
DataValue, 2.2800000000000002, 0.0001000005
DataValue, 2.29, 0.0001000005
DataValue, 2.3000000000000003, 0.0001000005
DataValue, 2.31, 0.0001000005
DataValue, 2.32, 0.0001000004
DataValue, 2.33, 0.0001000005
DataValue, 2.34, 0.0001000005
DataValue, 2.35, 0.0001000005
DataValue, 2.36, 0.0001000005
DataValue, 2.37, 0.0001000005
DataValue, 2.38, 0.0001000005
DataValue, 2.39, 0.0001000005
DataValue, 2.4, 0.0001000005
DataValue, 2.41, 0.0001000005
DataValue, 2.42, 0.0001000006
DataValue, 2.43, 0.0001000004
DataValue, 2.44, 0.0001000005
DataValue, 2.45, 0.0001000005
DataValue, 2.46, 0.0001000006
DataValue, 2.47, 0.0001000005
DataValue, 2.48, 0.0001000006
DataValue, 2.49, 0.0001000005
DataValue, 2.5, 0.0001000006
DataValue, 2.5100000000000002, 0.0001000006
DataValue, 2.52, 0.0001000004
DataValue, 2.5300000000000002, 0.0001000005
DataValue, 2.54, 0.0001000005
DataValue, 2.5500000000000003, 0.0001000005
DataValue, 2.56, 0.0001000005
DataValue, 2.57, 0.0001000005
DataValue, 2.58, 0.0001000006
DataValue, 2.59, 0.0001000005
DataValue, 2.6, 0.0001000006
DataValue, 2.61, 0.0001000005
DataValue, 2.62, 0.0001000005
DataValue, 2.63, 0.0001000005
DataValue, 2.64, 0.0001000004
DataValue, 2.65, 0.0001000005
DataValue, 2.66, 0.0001000006
DataValue, 2.67, 0.0001000004
DataValue, 2.68, 0.0001000005
DataValue, 2.69, 0.0001000005
DataValue, 2.7, 0.0001000004
DataValue, 2.71, 0.0001000006
DataValue, 2.72, 0.0001000005
DataValue, 2.73, 0.0001000005
DataValue, 2.74, 0.0001000005
DataValue, 2.75, 0.0001000005
DataValue, 2.7600000000000002, 0.0001000005
DataValue, 2.77, 0.0001000005
DataValue, 2.7800000000000002, 0.0001000005
DataValue, 2.79, 0.0001000005
DataValue, 2.8000000000000003, 0.0001000005
DataValue, 2.81, 0.0001000005
DataValue, 2.82, 0.0001000005
DataValue, 2.83, 0.0001000006
DataValue, 2.84, 0.0001000005
DataValue, 2.85, 0.0001000005
DataValue, 2.86, 0.0001000005
DataValue, 2.87, 0.0001000005
DataValue, 2.88, 0.0001000006
DataValue, 2.89, 0.0001000005
DataValue, 2.9, 0.0001000004
DataValue, 2.91, 0.0001000004
DataValue, 2.92, 0.0001000004
DataValue, 2.93, 0.0001000005
DataValue, 2.94, 0.0001000006
DataValue, 2.95, 0.0001000005
DataValue, 2.96, 0.0001000005
DataValue, 2.97, 0.0001000005
DataValue, 2.98, 0.0001000005
DataValue, 2.99, 0.0001000004
DataValue, 3, 0.0001000004
DataValue, 2.99, 0.0001000005
DataValue, 2.98, 0.0001000005
DataValue, 2.97, 0.0001000005
DataValue, 2.96, 0.0001000005
DataValue, 2.95, 0.0001000005
DataValue, 2.94, 0.0001000005
DataValue, 2.93, 0.0001000005
DataValue, 2.92, 0.0001000006
DataValue, 2.91, 0.0001000005
DataValue, 2.9, 0.0001000005
DataValue, 2.89, 0.0001000005
DataValue, 2.88, 0.0001000005
DataValue, 2.87, 0.0001000004
DataValue, 2.86, 0.0001000004
DataValue, 2.85, 0.0001000004
DataValue, 2.84, 0.0001000005
DataValue, 2.83, 0.0001000005
DataValue, 2.82, 0.0001000005
DataValue, 2.81, 0.0001000005
DataValue, 2.8000000000000003, 0.0001000005
DataValue, 2.79, 0.0001000005
DataValue, 2.7800000000000002, 0.0001000005
DataValue, 2.77, 0.0001000005
DataValue, 2.7600000000000002, 0.0001000005
DataValue, 2.75, 0.0001000005
DataValue, 2.74, 0.0001000005
DataValue, 2.73, 0.0001000004
DataValue, 2.72, 0.0001000004
DataValue, 2.71, 0.0001000005
DataValue, 2.7, 0.0001000005
DataValue, 2.69, 0.0001000005
DataValue, 2.68, 0.0001000006
DataValue, 2.67, 0.0001000005
DataValue, 2.66, 0.0001000005
DataValue, 2.65, 0.0001000004
DataValue, 2.64, 0.0001000003
DataValue, 2.63, 0.0001000005
DataValue, 2.62, 0.0001000005
DataValue, 2.61, 0.0001000005
DataValue, 2.6, 0.0001000005
DataValue, 2.59, 0.0001000005
DataValue, 2.58, 0.0001000005
DataValue, 2.57, 0.0001000005
DataValue, 2.56, 0.0001000004
DataValue, 2.5500000000000003, 0.0001000005
DataValue, 2.54, 0.0001000005
DataValue, 2.5300000000000002, 0.0001000005
DataValue, 2.52, 0.0001000005
DataValue, 2.5100000000000002, 0.0001000005
DataValue, 2.5, 0.0001000004
DataValue, 2.49, 0.0001000004
DataValue, 2.48, 0.0001000005
DataValue, 2.47, 0.0001000005
DataValue, 2.46, 0.0001000005
DataValue, 2.45, 0.0001000005
DataValue, 2.44, 0.0001000006
DataValue, 2.43, 0.0001000004
DataValue, 2.42, 0.0001000004
DataValue, 2.41, 0.0001000005
DataValue, 2.4, 0.0001000005
DataValue, 2.39, 0.0001000005
DataValue, 2.38, 0.0001000005
DataValue, 2.37, 0.0001000006
DataValue, 2.36, 0.0001000005
DataValue, 2.35, 0.0001000005
DataValue, 2.34, 0.0001000004
DataValue, 2.33, 0.0001000005
DataValue, 2.32, 0.0001000005
DataValue, 2.31, 0.0001000005
DataValue, 2.3000000000000003, 0.0001000005
DataValue, 2.29, 0.0001000004
DataValue, 2.2800000000000002, 0.0001000005
DataValue, 2.27, 0.0001000005
DataValue, 2.2600000000000002, 0.0001000006
DataValue, 2.25, 0.0001000006
DataValue, 2.24, 0.0001000004
DataValue, 2.23, 0.0001000005
DataValue, 2.22, 0.0001000006
DataValue, 2.21, 0.0001000006
DataValue, 2.2, 0.0001000005
DataValue, 2.19, 0.0001000004
DataValue, 2.18, 0.0001000005
DataValue, 2.17, 0.0001000005
DataValue, 2.16, 0.0001000005
DataValue, 2.15, 0.0001000006
DataValue, 2.14, 0.0001000005
DataValue, 2.13, 0.0001000005
DataValue, 2.12, 0.0001000005
DataValue, 2.11, 0.0001000005
DataValue, 2.1, 0.0001000005
DataValue, 2.09, 0.0001000005
DataValue, 2.08, 0.0001000005
DataValue, 2.07, 0.0001000004
DataValue, 2.06, 0.0001000005
DataValue, 2.05, 0.0001000003
DataValue, 2.04, 0.0001000005
DataValue, 2.0300000000000002, 0.0001000005
DataValue, 2.02, 0.0001000005
DataValue, 2.0100000000000002, 0.0001000005
DataValue, 2, 0.0001000004
DataValue, 1.99, 0.0001000004
DataValue, 1.98, 0.0001000005
DataValue, 1.97, 0.0001000006
DataValue, 1.96, 0.0001000005
DataValue, 1.95, 0.0001000005
DataValue, 1.94, 0.0001000004
DataValue, 1.93, 0.0001000004
DataValue, 1.92, 0.0001000005
DataValue, 1.9100000000000001, 0.0001000005
DataValue, 1.9000000000000001, 0.0001000005
DataValue, 1.8900000000000001, 0.0001000004
DataValue, 1.8800000000000001, 0.0001000005
DataValue, 1.87, 0.0001000006
DataValue, 1.86, 0.0001000005
DataValue, 1.85, 0.0001000005
DataValue, 1.84, 0.0001000004
DataValue, 1.83, 0.0001000004
DataValue, 1.82, 0.0001000005
DataValue, 1.81, 0.0001000004
DataValue, 1.8, 0.0001000005
DataValue, 1.79, 0.0001000004
DataValue, 1.78, 0.0001000004
DataValue, 1.77, 0.0001000005
DataValue, 1.76, 0.0001000005
DataValue, 1.75, 0.0001000004
DataValue, 1.74, 0.0001000005
DataValue, 1.73, 0.0001000004
DataValue, 1.72, 0.0001000004
DataValue, 1.71, 0.0001000004
DataValue, 1.7, 0.0001000004
DataValue, 1.69, 0.0001000004
DataValue, 1.68, 0.0001000004
DataValue, 1.67, 0.0001000004
DataValue, 1.6600000000000001, 0.0001000004
DataValue, 1.6500000000000001, 0.0001000005
DataValue, 1.6400000000000001, 0.0001000005
DataValue, 1.6300000000000001, 0.0001000005
DataValue, 1.62, 0.0001000005
DataValue, 1.61, 0.0001000005
DataValue, 1.6, 0.0001000005
DataValue, 1.59, 0.0001000005
DataValue, 1.58, 0.0001000003
DataValue, 1.57, 0.0001000006
DataValue, 1.56, 0.0001000005
DataValue, 1.55, 0.0001000005
DataValue, 1.54, 0.0001000004
DataValue, 1.53, 0.0001000004
DataValue, 1.52, 0.0001000005
DataValue, 1.51, 0.0001000005
DataValue, 1.5, 0.0001000004
DataValue, 1.49, 0.0001000005
DataValue, 1.48, 0.0001000003
DataValue, 1.47, 0.0001000004
DataValue, 1.46, 0.0001000004
DataValue, 1.45, 0.0001000005
DataValue, 1.44, 0.0001000004
DataValue, 1.43, 0.0001000004
DataValue, 1.42, 0.0001000005
DataValue, 1.41, 0.0001000004
DataValue, 1.4000000000000001, 0.0001000005
DataValue, 1.3900000000000001, 0.0001000005
DataValue, 1.3800000000000001, 0.0001000005
DataValue, 1.37, 0.0001000005
DataValue, 1.36, 0.0001000005
DataValue, 1.35, 0.0001000004
DataValue, 1.34, 0.0001000005
DataValue, 1.33, 0.0001000005
DataValue, 1.32, 0.0001000004
DataValue, 1.31, 0.0001000004
DataValue, 1.3, 0.0001000005
DataValue, 1.29, 0.0001000004
DataValue, 1.28, 0.0001000005
DataValue, 1.27, 0.0001000005
DataValue, 1.26, 0.0001000005
DataValue, 1.25, 0.0001000005
DataValue, 1.24, 0.0001000006
DataValue, 1.23, 0.0001000005
DataValue, 1.22, 0.0001000005
DataValue, 1.21, 0.0001000005
DataValue, 1.2, 0.0001000005
DataValue, 1.19, 0.0001000004
DataValue, 1.18, 0.0001000005
DataValue, 1.17, 0.0001000004
DataValue, 1.16, 0.0001000005
DataValue, 1.1500000000000001, 0.0001000004
DataValue, 1.1400000000000001, 0.0001000005
DataValue, 1.1300000000000001, 0.0001000003
DataValue, 1.12, 0.0001000005
DataValue, 1.11, 0.0001000004
DataValue, 1.1, 0.0001000005
DataValue, 1.09, 0.0001000005
DataValue, 1.08, 0.0001000005
DataValue, 1.07, 0.0001000005
DataValue, 1.06, 0.0001000005
DataValue, 1.05, 0.0001000004
DataValue, 1.04, 0.0001000004
DataValue, 1.03, 0.0001000004
DataValue, 1.02, 0.0001000004
DataValue, 1.01, 0.0001000005
DataValue, 1, 0.0001000004
DataValue, 0.99, 0.0001000004
DataValue, 0.98, 0.0001000004
DataValue, 0.97, 0.0001000005
DataValue, 0.96, 0.0001000005
DataValue, 0.95000000000000007, 0.0001000005
DataValue, 0.94000000000000006, 0.0001000004
DataValue, 0.93, 0.0001000004
DataValue, 0.92, 0.0001000004
DataValue, 0.91, 0.0001000005
DataValue, 0.9, 0.0001000005
DataValue, 0.89, 0.0001000004
DataValue, 0.88, 0.0001000005
DataValue, 0.87, 0.0001000005
DataValue, 0.86, 0.0001000005
DataValue, 0.85, 0.0001000005
DataValue, 0.84, 0.0001000005
DataValue, 0.83000000000000007, 0.0001000005
DataValue, 0.82000000000000006, 0.0001000004
DataValue, 0.81, 0.0001000005
DataValue, 0.8, 0.0001000004
DataValue, 0.79, 0.0001000005
DataValue, 0.78, 0.0001000005
DataValue, 0.77, 0.0001000005
DataValue, 0.76, 0.0001000004
DataValue, 0.75, 0.0001000003
DataValue, 0.74, 0.0001000005
DataValue, 0.73, 0.0001000004
DataValue, 0.72, 0.0001000006
DataValue, 0.71, 0.0001000004
DataValue, 0.70000000000000007, 0.0001000005
DataValue, 0.69000000000000006, 0.0001000005
DataValue, 0.68, 0.0001000004
DataValue, 0.67, 0.0001000005
DataValue, 0.66, 0.0001000004
DataValue, 0.65, 0.0001000004
DataValue, 0.64, 0.0001000004
DataValue, 0.63, 0.0001000005
DataValue, 0.62, 0.0001000005
DataValue, 0.61, 0.0001000005
DataValue, 0.6, 0.0001000004
DataValue, 0.59, 0.0001000004
DataValue, 0.58, 0.0001000004
DataValue, 0.57000000000000006, 0.0001000005
DataValue, 0.56, 0.0001000005
DataValue, 0.55, 0.0001000005
DataValue, 0.54, 0.0001000004
DataValue, 0.53, 0.0001000003
DataValue, 0.52, 0.0001000005
DataValue, 0.51, 0.0001000003
DataValue, 0.5, 9.65301E-05
DataValue, 0.49, 8.95398E-05
DataValue, 0.48, 8.55409E-05
DataValue, 0.47000000000000003, 8.13756E-05
DataValue, 0.46, 7.67425E-05
DataValue, 0.45, 7.24992E-05
DataValue, 0.44, 6.86041E-05
DataValue, 0.43, 6.49833E-05
DataValue, 0.42, 6.15966E-05
DataValue, 0.41000000000000003, 5.83127E-05
DataValue, 0.4, 5.4982700000000005E-05
DataValue, 0.39, 5.19302E-05
DataValue, 0.38, 4.92401E-05
DataValue, 0.37, 4.62634E-05
DataValue, 0.36, 4.35836E-05
DataValue, 0.35000000000000003, 4.10735E-05
DataValue, 0.34, 3.86914E-05
DataValue, 0.33, 3.6300900000000003E-05
DataValue, 0.32, 3.4243000000000004E-05
DataValue, 0.31, 3.2153800000000004E-05
DataValue, 0.3, 3.0161E-05
DataValue, 0.29, 2.82692E-05
DataValue, 0.28, 2.6385000000000002E-05
DataValue, 0.27, 2.47078E-05
DataValue, 0.26, 2.30208E-05
DataValue, 0.25, 2.14161E-05
DataValue, 0.24, 1.98741E-05
DataValue, 0.23, 1.84636E-05
DataValue, 0.22, 1.70711E-05
DataValue, 0.21, 1.57718E-05
