
SetupTitle, SET+RESET
ApplicationTest, DoubleSweep_IV, Public
TestParameter, Name, Port1, Port2, Vstart1, Vstop1, Vstep1, Compliance1, Vstart2, Vstop2, Vstep2, Compliance2, IntegTime, HoldTime, DelayTime, MinRange
TestParameter, Value, SMU1:MP	MPSMU, SMU2:MP	MPSMU, 0, 3, 0.01, 0.0001, 0, -1.1, 0.01, 0.1, MEDIUM, 0, 0, 1nA
DutParameter, Name, Temp, CCMax
DutParameter, Value, 25, 0.1
MetaData, TestRecord.EntryPoint, true
MetaData, TestRecord.RecordTime, 10/13/2025 15:43:54
MetaData, TestRecord.TestTarget, 
MetaData, TestRecord.IterationIndex, 5
MetaData, TestRecord.Preservation, true
MetaData, TestRecord.Flag, 
MetaData, TestRecord.Remarks, 
MetaData, TestRecord.LinkKey, 6a6977c4-a0e3-469e-bc1d-293fae79482c
MetaData, TestRecord.Parameters, 
Dimension1, 821, 821
Dimension2, 1, 1
DataName, V1, I1
DataValue, 0, 1.7267400000000002E-10
DataValue, 0.01, 2.59567E-08
DataValue, 0.02, 5.3575999999999996E-08
DataValue, 0.03, 8.1853099999999991E-08
DataValue, 0.04, 1.114233E-07
DataValue, 0.05, 1.44679E-07
DataValue, 0.06, 1.83359E-07
DataValue, 0.07, 2.21835E-07
DataValue, 0.08, 2.66994E-07
DataValue, 0.09, 3.16076E-07
DataValue, 0.1, 3.67415E-07
DataValue, 0.11, 4.23368E-07
DataValue, 0.12, 4.86741E-07
DataValue, 0.13, 5.56023E-07
DataValue, 0.14, 6.34027E-07
DataValue, 0.15, 7.22159E-07
DataValue, 0.16, 8.05004E-07
DataValue, 0.17, 9.0417E-07
DataValue, 0.18, 1.016013E-06
DataValue, 0.19, 1.26215E-06
DataValue, 0.2, 1.42934E-06
DataValue, 0.21, 1.5950300000000002E-06
DataValue, 0.22, 1.7602E-06
DataValue, 0.23, 1.9440300000000003E-06
DataValue, 0.24, 2.2341000000000003E-06
DataValue, 0.25, 2.49423E-06
DataValue, 0.26, 2.72937E-06
DataValue, 0.27, 2.8941000000000004E-06
DataValue, 0.28, 3.5473600000000003E-06
DataValue, 0.29, 4.09491E-06
DataValue, 0.3, 4.46944E-06
DataValue, 0.31, 4.8331800000000009E-06
DataValue, 0.32, 4.8512200000000008E-06
DataValue, 0.33, 5.71524E-06
DataValue, 0.34, 6.10894E-06
DataValue, 0.35000000000000003, 6.6517100000000009E-06
DataValue, 0.36, 6.16253E-06
DataValue, 0.37, 7.17922E-06
DataValue, 0.38, 7.69781E-06
DataValue, 0.39, 7.9639600000000009E-06
DataValue, 0.4, 8.97971E-06
DataValue, 0.41000000000000003, 9.7262900000000014E-06
DataValue, 0.42, 9.56233E-06
DataValue, 0.43, 1.0666130000000002E-05
DataValue, 0.44, 1.15238E-05
DataValue, 0.45, 1.10592E-05
DataValue, 0.46, 1.15085E-05
DataValue, 0.47000000000000003, 1.2272200000000001E-05
DataValue, 0.48, 1.29902E-05
DataValue, 0.49, 1.28918E-05
DataValue, 0.5, 1.21685E-05
DataValue, 0.51, 1.24358E-05
DataValue, 0.52, 1.3544700000000001E-05
DataValue, 0.53, 1.07219E-05
DataValue, 0.54, 8.8920400000000017E-06
DataValue, 0.55, 1.1464E-05
DataValue, 0.56, 1.33182E-05
DataValue, 0.57000000000000006, 1.39531E-05
DataValue, 0.58, 1.41315E-05
DataValue, 0.59, 1.0838300000000001E-05
DataValue, 0.6, 1.44158E-05
DataValue, 0.61, 1.60437E-05
DataValue, 0.62, 1.5249900000000001E-05
DataValue, 0.63, 1.68148E-05
DataValue, 0.64, 1.81137E-05
DataValue, 0.65, 1.55202E-05
DataValue, 0.66, 1.63791E-05
DataValue, 0.67, 0.0001000005
DataValue, 0.68, 0.0001000005
DataValue, 0.69000000000000006, 0.0001000004
DataValue, 0.70000000000000007, 0.0001000005
DataValue, 0.71, 0.0001000005
DataValue, 0.72, 0.0001000005
DataValue, 0.73, 0.0001000006
DataValue, 0.74, 0.0001000004
DataValue, 0.75, 0.0001000005
DataValue, 0.76, 0.0001000006
DataValue, 0.77, 0.0001000005
DataValue, 0.78, 0.0001000005
DataValue, 0.79, 0.0001000005
DataValue, 0.8, 0.0001000005
DataValue, 0.81, 0.0001000005
DataValue, 0.82000000000000006, 0.0001000005
DataValue, 0.83000000000000007, 0.0001000005
DataValue, 0.84, 0.0001000005
DataValue, 0.85, 0.0001000006
DataValue, 0.86, 0.0001000006
DataValue, 0.87, 0.0001000005
DataValue, 0.88, 0.0001000005
DataValue, 0.89, 0.0001000005
DataValue, 0.9, 0.0001000006
DataValue, 0.91, 0.0001000006
DataValue, 0.92, 0.0001000005
DataValue, 0.93, 0.0001000005
DataValue, 0.94000000000000006, 0.0001000005
DataValue, 0.95000000000000007, 0.0001000005
DataValue, 0.96, 0.0001000005
DataValue, 0.97, 0.0001000005
DataValue, 0.98, 0.0001000004
DataValue, 0.99, 0.0001000005
DataValue, 1, 0.0001000005
DataValue, 1.01, 0.0001000005
DataValue, 1.02, 0.0001000006
DataValue, 1.03, 0.0001000006
DataValue, 1.04, 0.0001000006
DataValue, 1.05, 0.0001000006
DataValue, 1.06, 0.0001000005
DataValue, 1.07, 0.0001000005
DataValue, 1.08, 0.0001000006
DataValue, 1.09, 0.0001000006
DataValue, 1.1, 0.0001000005
DataValue, 1.11, 0.0001000005
DataValue, 1.12, 0.0001000005
DataValue, 1.1300000000000001, 0.0001000005
DataValue, 1.1400000000000001, 0.0001000005
DataValue, 1.1500000000000001, 0.0001000005
DataValue, 1.16, 0.0001000006
DataValue, 1.17, 0.0001000005
DataValue, 1.18, 0.0001000005
DataValue, 1.19, 0.0001000005
DataValue, 1.2, 0.0001000005
DataValue, 1.21, 0.0001000005
DataValue, 1.22, 0.0001000005
DataValue, 1.23, 0.0001000006
DataValue, 1.24, 0.0001000005
DataValue, 1.25, 0.0001000005
DataValue, 1.26, 0.0001000006
DataValue, 1.27, 0.0001000005
DataValue, 1.28, 0.0001000006
DataValue, 1.29, 0.0001000005
DataValue, 1.3, 0.0001000006
DataValue, 1.31, 0.0001000006
DataValue, 1.32, 0.0001000004
DataValue, 1.33, 0.0001000006
DataValue, 1.34, 0.0001000005
DataValue, 1.35, 0.0001000006
DataValue, 1.36, 0.0001000006
DataValue, 1.37, 0.0001000005
DataValue, 1.3800000000000001, 0.0001000005
DataValue, 1.3900000000000001, 0.0001000005
DataValue, 1.4000000000000001, 0.0001000005
DataValue, 1.41, 0.0001000004
DataValue, 1.42, 0.0001000005
DataValue, 1.43, 0.0001000005
DataValue, 1.44, 0.0001000005
DataValue, 1.45, 0.0001000005
DataValue, 1.46, 0.0001000005
DataValue, 1.47, 0.0001000005
DataValue, 1.48, 0.0001000005
DataValue, 1.49, 0.0001000005
DataValue, 1.5, 0.0001000005
DataValue, 1.51, 0.0001000005
DataValue, 1.52, 0.0001000005
DataValue, 1.53, 0.0001000006
DataValue, 1.54, 0.0001000005
DataValue, 1.55, 0.0001000005
DataValue, 1.56, 0.0001000006
DataValue, 1.57, 0.0001000006
DataValue, 1.58, 0.0001000004
DataValue, 1.59, 0.0001000005
DataValue, 1.6, 0.0001000005
DataValue, 1.61, 0.0001000005
DataValue, 1.62, 0.0001000005
DataValue, 1.6300000000000001, 0.0001000005
DataValue, 1.6400000000000001, 0.0001000006
DataValue, 1.6500000000000001, 0.0001000006
DataValue, 1.6600000000000001, 0.0001000005
DataValue, 1.67, 0.0001000005
DataValue, 1.68, 0.0001000006
DataValue, 1.69, 0.0001000005
DataValue, 1.7, 0.0001000005
DataValue, 1.71, 0.0001000006
DataValue, 1.72, 0.0001000005
DataValue, 1.73, 0.0001000006
DataValue, 1.74, 0.0001000006
DataValue, 1.75, 0.0001000006
DataValue, 1.76, 0.0001000005
DataValue, 1.77, 0.0001000005
DataValue, 1.78, 0.0001000006
DataValue, 1.79, 0.0001000005
DataValue, 1.8, 0.0001000005
DataValue, 1.81, 0.0001000004
DataValue, 1.82, 0.0001000005
DataValue, 1.83, 0.0001000005
DataValue, 1.84, 0.0001000004
DataValue, 1.85, 0.0001000005
DataValue, 1.86, 0.0001000005
DataValue, 1.87, 0.0001000005
DataValue, 1.8800000000000001, 0.0001000004
DataValue, 1.8900000000000001, 0.0001000006
DataValue, 1.9000000000000001, 0.0001000005
DataValue, 1.9100000000000001, 0.0001000005
DataValue, 1.92, 0.0001000005
DataValue, 1.93, 0.0001000005
DataValue, 1.94, 0.0001000005
DataValue, 1.95, 0.0001000005
DataValue, 1.96, 0.0001000005
DataValue, 1.97, 0.0001000005
DataValue, 1.98, 0.0001000005
DataValue, 1.99, 0.0001000006
DataValue, 2, 0.0001000005
DataValue, 2.0100000000000002, 0.0001000006
DataValue, 2.02, 0.0001000005
DataValue, 2.0300000000000002, 0.0001000005
DataValue, 2.04, 0.0001000005
DataValue, 2.05, 0.0001000005
DataValue, 2.06, 0.0001000005
DataValue, 2.07, 0.0001000005
DataValue, 2.08, 0.0001000005
DataValue, 2.09, 0.0001000004
DataValue, 2.1, 0.0001000005
DataValue, 2.11, 0.0001000005
DataValue, 2.12, 0.0001000005
DataValue, 2.13, 0.0001000005
DataValue, 2.14, 0.0001000006
DataValue, 2.15, 0.0001000005
DataValue, 2.16, 0.0001000005
DataValue, 2.17, 0.0001000004
DataValue, 2.18, 0.0001000005
DataValue, 2.19, 0.0001000005
DataValue, 2.2, 0.0001000005
DataValue, 2.21, 0.0001000006
DataValue, 2.22, 0.0001000006
DataValue, 2.23, 0.0001000005
DataValue, 2.24, 0.0001000004
DataValue, 2.25, 0.0001000005
DataValue, 2.2600000000000002, 0.0001000005
DataValue, 2.27, 0.0001000006
DataValue, 2.2800000000000002, 0.0001000005
DataValue, 2.29, 0.0001000005
DataValue, 2.3000000000000003, 0.0001000006
DataValue, 2.31, 0.0001000006
DataValue, 2.32, 0.0001000005
DataValue, 2.33, 0.0001000005
DataValue, 2.34, 0.0001000004
DataValue, 2.35, 0.0001000005
DataValue, 2.36, 0.0001000005
DataValue, 2.37, 0.0001000005
DataValue, 2.38, 0.0001000004
DataValue, 2.39, 0.0001000005
DataValue, 2.4, 0.0001000005
DataValue, 2.41, 0.0001000005
DataValue, 2.42, 0.0001000005
DataValue, 2.43, 0.0001000005
DataValue, 2.44, 0.0001000005
DataValue, 2.45, 0.0001000005
DataValue, 2.46, 0.0001000005
DataValue, 2.47, 0.0001000005
DataValue, 2.48, 0.0001000006
DataValue, 2.49, 0.0001000004
DataValue, 2.5, 0.0001000004
DataValue, 2.5100000000000002, 0.0001000005
DataValue, 2.52, 0.0001000003
DataValue, 2.5300000000000002, 0.0001000005
DataValue, 2.54, 0.0001000004
DataValue, 2.5500000000000003, 0.0001000005
DataValue, 2.56, 0.0001000005
DataValue, 2.57, 0.0001000005
DataValue, 2.58, 0.0001000004
DataValue, 2.59, 0.0001000005
DataValue, 2.6, 0.0001000005
DataValue, 2.61, 0.0001000005
DataValue, 2.62, 0.0001000005
DataValue, 2.63, 0.0001000004
DataValue, 2.64, 0.0001000005
DataValue, 2.65, 0.0001000004
DataValue, 2.66, 0.0001000005
DataValue, 2.67, 0.0001000005
DataValue, 2.68, 0.0001000005
DataValue, 2.69, 0.0001000005
DataValue, 2.7, 0.0001000004
DataValue, 2.71, 0.0001000005
DataValue, 2.72, 0.0001000004
DataValue, 2.73, 0.0001000005
DataValue, 2.74, 0.0001000005
DataValue, 2.75, 0.0001000005
DataValue, 2.7600000000000002, 0.0001000005
DataValue, 2.77, 0.0001000005
DataValue, 2.7800000000000002, 0.0001000005
DataValue, 2.79, 0.0001000005
DataValue, 2.8000000000000003, 0.0001000005
DataValue, 2.81, 0.0001000005
DataValue, 2.82, 0.0001000005
DataValue, 2.83, 0.0001000004
DataValue, 2.84, 0.0001000006
DataValue, 2.85, 0.0001000005
DataValue, 2.86, 0.0001000005
DataValue, 2.87, 0.0001000005
DataValue, 2.88, 0.0001000005
DataValue, 2.89, 0.0001000006
DataValue, 2.9, 0.0001000005
DataValue, 2.91, 0.0001000005
DataValue, 2.92, 0.0001000005
DataValue, 2.93, 0.0001000005
DataValue, 2.94, 0.0001000005
DataValue, 2.95, 0.0001000004
DataValue, 2.96, 0.0001000005
DataValue, 2.97, 0.0001000005
DataValue, 2.98, 0.0001000005
DataValue, 2.99, 0.0001000006
DataValue, 3, 0.0001000005
DataValue, 2.99, 0.0001000005
DataValue, 2.98, 0.0001000005
DataValue, 2.97, 0.0001000005
DataValue, 2.96, 0.0001000006
DataValue, 2.95, 0.0001000005
DataValue, 2.94, 0.0001000005
DataValue, 2.93, 0.0001000005
DataValue, 2.92, 0.0001000006
DataValue, 2.91, 0.0001000005
DataValue, 2.9, 0.0001000005
DataValue, 2.89, 0.0001000005
DataValue, 2.88, 0.0001000006
DataValue, 2.87, 0.0001000005
DataValue, 2.86, 0.0001000006
DataValue, 2.85, 0.0001000005
DataValue, 2.84, 0.0001000005
DataValue, 2.83, 0.0001000005
DataValue, 2.82, 0.0001000006
DataValue, 2.81, 0.0001000006
DataValue, 2.8000000000000003, 0.0001000005
DataValue, 2.79, 0.0001000005
DataValue, 2.7800000000000002, 0.0001000005
DataValue, 2.77, 0.0001000005
DataValue, 2.7600000000000002, 0.0001000005
DataValue, 2.75, 0.0001000005
DataValue, 2.74, 0.0001000006
DataValue, 2.73, 0.0001000005
DataValue, 2.72, 0.0001000005
DataValue, 2.71, 0.0001000005
DataValue, 2.7, 0.0001000005
DataValue, 2.69, 0.0001000004
DataValue, 2.68, 0.0001000004
DataValue, 2.67, 0.0001000005
DataValue, 2.66, 0.0001000005
DataValue, 2.65, 0.0001000006
DataValue, 2.64, 0.0001000005
DataValue, 2.63, 0.0001000005
DataValue, 2.62, 0.0001000005
DataValue, 2.61, 0.0001000005
DataValue, 2.6, 0.0001000005
DataValue, 2.59, 0.0001000006
DataValue, 2.58, 0.0001000005
DataValue, 2.57, 0.0001000005
DataValue, 2.56, 0.0001000005
DataValue, 2.5500000000000003, 0.0001000005
DataValue, 2.54, 0.0001000005
DataValue, 2.5300000000000002, 0.0001000005
DataValue, 2.52, 0.0001000005
DataValue, 2.5100000000000002, 0.0001000005
DataValue, 2.5, 0.0001000006
DataValue, 2.49, 0.0001000005
DataValue, 2.48, 0.0001000005
DataValue, 2.47, 0.0001000006
DataValue, 2.46, 0.0001000005
DataValue, 2.45, 0.0001000005
DataValue, 2.44, 0.0001000005
DataValue, 2.43, 0.0001000004
DataValue, 2.42, 0.0001000004
DataValue, 2.41, 0.0001000005
DataValue, 2.4, 0.0001000005
DataValue, 2.39, 0.0001000005
DataValue, 2.38, 0.0001000005
DataValue, 2.37, 0.0001000006
DataValue, 2.36, 0.0001000005
DataValue, 2.35, 0.0001000005
DataValue, 2.34, 0.0001000005
DataValue, 2.33, 0.0001000005
DataValue, 2.32, 0.0001000005
DataValue, 2.31, 0.0001000005
DataValue, 2.3000000000000003, 0.0001000005
DataValue, 2.29, 0.0001000005
DataValue, 2.2800000000000002, 0.0001000005
DataValue, 2.27, 0.0001000005
DataValue, 2.2600000000000002, 0.0001000005
DataValue, 2.25, 0.0001000005
DataValue, 2.24, 0.0001000005
DataValue, 2.23, 0.0001000005
DataValue, 2.22, 0.0001000006
DataValue, 2.21, 0.0001000006
DataValue, 2.2, 0.0001000005
DataValue, 2.19, 0.0001000006
DataValue, 2.18, 0.0001000005
DataValue, 2.17, 0.0001000005
DataValue, 2.16, 0.0001000005
DataValue, 2.15, 0.0001000005
DataValue, 2.14, 0.0001000006
DataValue, 2.13, 0.0001000006
DataValue, 2.12, 0.0001000005
DataValue, 2.11, 0.0001000005
DataValue, 2.1, 0.0001000005
DataValue, 2.09, 0.0001000005
DataValue, 2.08, 0.0001000005
DataValue, 2.07, 0.0001000006
DataValue, 2.06, 0.0001000006
DataValue, 2.05, 0.0001000005
DataValue, 2.04, 0.0001000005
DataValue, 2.0300000000000002, 0.0001000005
DataValue, 2.02, 0.0001000005
DataValue, 2.0100000000000002, 0.0001000006
DataValue, 2, 0.0001000005
DataValue, 1.99, 0.0001000006
DataValue, 1.98, 0.0001000005
DataValue, 1.97, 0.0001000006
DataValue, 1.96, 0.0001000005
DataValue, 1.95, 0.0001000005
DataValue, 1.94, 0.0001000005
DataValue, 1.93, 0.0001000005
DataValue, 1.92, 0.0001000005
DataValue, 1.9100000000000001, 0.0001000005
DataValue, 1.9000000000000001, 0.0001000006
DataValue, 1.8900000000000001, 0.0001000006
DataValue, 1.8800000000000001, 0.0001000005
DataValue, 1.87, 0.0001000005
DataValue, 1.86, 0.0001000005
DataValue, 1.85, 0.0001000006
DataValue, 1.84, 0.0001000006
DataValue, 1.83, 0.0001000006
DataValue, 1.82, 0.0001000005
DataValue, 1.81, 0.0001000005
DataValue, 1.8, 0.0001000005
DataValue, 1.79, 0.0001000005
DataValue, 1.78, 0.0001000005
DataValue, 1.77, 0.0001000005
DataValue, 1.76, 0.0001000005
DataValue, 1.75, 0.0001000006
DataValue, 1.74, 0.0001000006
DataValue, 1.73, 0.0001000005
DataValue, 1.72, 0.0001000005
DataValue, 1.71, 0.0001000005
DataValue, 1.7, 0.0001000006
DataValue, 1.69, 0.0001000006
DataValue, 1.68, 0.0001000005
DataValue, 1.67, 0.0001000006
DataValue, 1.6600000000000001, 0.0001000005
DataValue, 1.6500000000000001, 0.0001000006
DataValue, 1.6400000000000001, 0.0001000005
DataValue, 1.6300000000000001, 0.0001000005
DataValue, 1.62, 0.0001000005
DataValue, 1.61, 0.0001000006
DataValue, 1.6, 0.0001000005
DataValue, 1.59, 0.0001000006
DataValue, 1.58, 0.0001000005
DataValue, 1.57, 0.0001000006
DataValue, 1.56, 0.0001000006
DataValue, 1.55, 0.0001000005
DataValue, 1.54, 0.0001000005
DataValue, 1.53, 0.0001000005
DataValue, 1.52, 0.0001000005
DataValue, 1.51, 0.0001000006
DataValue, 1.5, 0.0001000006
DataValue, 1.49, 0.0001000006
DataValue, 1.48, 0.0001000006
DataValue, 1.47, 0.0001000005
DataValue, 1.46, 0.0001000005
DataValue, 1.45, 0.0001000006
DataValue, 1.44, 0.0001000005
DataValue, 1.43, 0.0001000006
DataValue, 1.42, 0.0001000005
DataValue, 1.41, 0.0001000006
DataValue, 1.4000000000000001, 0.0001000005
DataValue, 1.3900000000000001, 0.0001000005
DataValue, 1.3800000000000001, 0.0001000005
DataValue, 1.37, 0.0001000005
DataValue, 1.36, 0.0001000005
DataValue, 1.35, 0.0001000005
DataValue, 1.34, 0.0001000006
DataValue, 1.33, 0.0001000005
DataValue, 1.32, 0.0001000006
DataValue, 1.31, 0.0001000005
DataValue, 1.3, 0.0001000006
DataValue, 1.29, 0.0001000006
DataValue, 1.28, 0.0001000005
DataValue, 1.27, 0.0001000005
DataValue, 1.26, 0.0001000006
DataValue, 1.25, 0.0001000005
DataValue, 1.24, 0.0001000004
DataValue, 1.23, 0.0001000005
DataValue, 1.22, 0.0001000005
DataValue, 1.21, 0.0001000006
DataValue, 1.2, 0.0001000005
DataValue, 1.19, 0.0001000005
DataValue, 1.18, 0.0001000005
DataValue, 1.17, 0.0001000005
DataValue, 1.16, 0.0001000005
DataValue, 1.1500000000000001, 0.0001000005
DataValue, 1.1400000000000001, 0.0001000005
DataValue, 1.1300000000000001, 0.0001000005
DataValue, 1.12, 0.0001000005
DataValue, 1.11, 0.0001000005
DataValue, 1.1, 0.0001000005
DataValue, 1.09, 0.0001000005
DataValue, 1.08, 0.0001000005
DataValue, 1.07, 0.0001000006
DataValue, 1.06, 0.0001000005
DataValue, 1.05, 0.0001000005
DataValue, 1.04, 0.0001000005
DataValue, 1.03, 0.0001000006
DataValue, 1.02, 0.0001000004
DataValue, 1.01, 0.0001000005
DataValue, 1, 0.0001000005
DataValue, 0.99, 0.0001000005
DataValue, 0.98, 0.0001000005
DataValue, 0.97, 0.0001000005
DataValue, 0.96, 0.0001000005
DataValue, 0.95000000000000007, 0.0001000005
DataValue, 0.94000000000000006, 0.0001000005
DataValue, 0.93, 0.0001000006
DataValue, 0.92, 0.0001000005
DataValue, 0.91, 0.0001000005
DataValue, 0.9, 0.0001000005
DataValue, 0.89, 0.0001000005
DataValue, 0.88, 0.0001000005
DataValue, 0.87, 0.0001000004
DataValue, 0.86, 0.0001000005
DataValue, 0.85, 0.0001000005
DataValue, 0.84, 0.0001000005
DataValue, 0.83000000000000007, 0.0001000005
DataValue, 0.82000000000000006, 0.0001000005
DataValue, 0.81, 0.0001000005
DataValue, 0.8, 0.0001000006
DataValue, 0.79, 0.0001000005
DataValue, 0.78, 0.0001000004
DataValue, 0.77, 0.0001000005
DataValue, 0.76, 0.0001000004
DataValue, 0.75, 0.0001000006
DataValue, 0.74, 0.0001000004
DataValue, 0.73, 0.0001000005
DataValue, 0.72, 0.0001000006
DataValue, 0.71, 0.0001000005
DataValue, 0.70000000000000007, 0.0001000005
DataValue, 0.69000000000000006, 0.0001000006
DataValue, 0.68, 0.0001000005
DataValue, 0.67, 0.0001000005
DataValue, 0.66, 0.0001000005
DataValue, 0.65, 0.0001000005
DataValue, 0.64, 0.0001000005
DataValue, 0.63, 0.0001000005
DataValue, 0.62, 0.0001000004
DataValue, 0.61, 0.0001000005
DataValue, 0.6, 0.0001000005
DataValue, 0.59, 0.0001000006
DataValue, 0.58, 0.0001000005
DataValue, 0.57000000000000006, 0.0001000005
DataValue, 0.56, 0.0001000005
DataValue, 0.55, 0.0001000005
DataValue, 0.54, 0.0001000005
DataValue, 0.53, 0.0001000005
DataValue, 0.52, 0.0001000005
DataValue, 0.51, 0.0001000005
DataValue, 0.5, 9.99982E-05
DataValue, 0.49, 9.65632E-05
DataValue, 0.48, 9.06607E-05
DataValue, 0.47000000000000003, 8.55395E-05
DataValue, 0.46, 8.10891E-05
DataValue, 0.45, 7.8647400000000009E-05
DataValue, 0.44, 7.27094E-05
DataValue, 0.43, 6.83399E-05
DataValue, 0.42, 6.45624E-05
DataValue, 0.41000000000000003, 6.08905E-05
DataValue, 0.4, 5.73362E-05
DataValue, 0.39, 5.3715600000000005E-05
DataValue, 0.38, 5.0504400000000004E-05
DataValue, 0.37, 4.74622E-05
DataValue, 0.36, 4.45817E-05
DataValue, 0.35000000000000003, 4.17074E-05
DataValue, 0.34, 3.90933E-05
DataValue, 0.33, 3.65442E-05
DataValue, 0.32, 3.41283E-05
DataValue, 0.31, 3.18258E-05
DataValue, 0.3, 2.98019E-05
DataValue, 0.29, 2.75582E-05
DataValue, 0.28, 2.57069E-05
DataValue, 0.27, 2.40195E-05
DataValue, 0.26, 2.22688E-05
DataValue, 0.25, 2.06705E-05
DataValue, 0.24, 1.90627E-05
DataValue, 0.23, 1.76665E-05
DataValue, 0.22, 1.6296500000000002E-05
DataValue, 0.21, 1.50175E-05
DataValue, 0.2, 1.3771200000000001E-05
DataValue, 0.19, 1.268E-05
DataValue, 0.18, 1.16221E-05
