
SetupTitle, SET+RESET
ApplicationTest, DoubleSweep_IV, Public
TestParameter, Name, Port1, Port2, Vstart1, Vstop1, Vstep1, Compliance1, Vstart2, Vstop2, Vstep2, Compliance2, IntegTime, HoldTime, DelayTime, MinRange
TestParameter, Value, SMU1:MP	MPSMU, SMU2:MP	MPSMU, 0, 3, 0.01, 0.0001, 0, -1.2, 0.01, 0.1, MEDIUM, 0, 0, 1nA
DutParameter, Name, Temp, CCMax
DutParameter, Value, 25, 0.1
MetaData, TestRecord.EntryPoint, true
MetaData, TestRecord.RecordTime, 10/13/2025 15:40:22
MetaData, TestRecord.TestTarget, 
MetaData, TestRecord.IterationIndex, 5
MetaData, TestRecord.Preservation, true
MetaData, TestRecord.Flag, 
MetaData, TestRecord.Remarks, 
MetaData, TestRecord.LinkKey, 8b2394bd-86a0-4016-801f-963334cd790f
MetaData, TestRecord.Parameters, 
Dimension1, 841, 841
Dimension2, 1, 1
DataName, V1, I1
DataValue, 0, 1.2085800000000002E-10
DataValue, 0.01, 2.5587999999999997E-08
DataValue, 0.02, 5.16974E-08
DataValue, 0.03, 7.9649999999999989E-08
DataValue, 0.04, 1.0779359999999998E-07
DataValue, 0.05, 1.37614E-07
DataValue, 0.06, 1.72492E-07
DataValue, 0.07, 2.12441E-07
DataValue, 0.08, 2.52013E-07
DataValue, 0.09, 2.94646E-07
DataValue, 0.1, 3.66256E-07
DataValue, 0.11, 4.45419E-07
DataValue, 0.12, 5.23744E-07
DataValue, 0.13, 6.05216E-07
DataValue, 0.14, 6.82116E-07
DataValue, 0.15, 7.7579999999999995E-07
DataValue, 0.16, 8.52664E-07
DataValue, 0.17, 9.77397E-07
DataValue, 0.18, 1.097344E-06
DataValue, 0.19, 1.2238600000000002E-06
DataValue, 0.2, 1.3023000000000002E-06
DataValue, 0.21, 1.47233E-06
DataValue, 0.22, 1.62829E-06
DataValue, 0.23, 1.6229100000000002E-06
DataValue, 0.24, 1.7257800000000001E-06
DataValue, 0.25, 1.8862600000000002E-06
DataValue, 0.26, 1.64443E-06
DataValue, 0.27, 1.7478200000000002E-06
DataValue, 0.28, 1.9013600000000003E-06
DataValue, 0.29, 2.0337E-06
DataValue, 0.3, 2.3271E-06
DataValue, 0.31, 2.59199E-06
DataValue, 0.32, 2.76159E-06
DataValue, 0.33, 2.9708900000000004E-06
DataValue, 0.34, 3.2590600000000004E-06
DataValue, 0.35000000000000003, 3.5094700000000005E-06
DataValue, 0.36, 3.86328E-06
DataValue, 0.37, 4.21454E-06
DataValue, 0.38, 4.56241E-06
DataValue, 0.39, 4.80491E-06
DataValue, 0.4, 5.1853E-06
DataValue, 0.41000000000000003, 5.6093400000000009E-06
DataValue, 0.42, 6.003100000000001E-06
DataValue, 0.43, 7.32648E-06
DataValue, 0.44, 6.98733E-06
DataValue, 0.45, 8.02885E-06
DataValue, 0.46, 9.5311800000000015E-06
DataValue, 0.47000000000000003, 9.698460000000001E-06
DataValue, 0.48, 1.013064E-05
DataValue, 0.49, 1.08242E-05
DataValue, 0.5, 1.09796E-05
DataValue, 0.51, 1.09525E-05
DataValue, 0.52, 1.14961E-05
DataValue, 0.53, 1.17721E-05
DataValue, 0.54, 1.2046700000000001E-05
DataValue, 0.55, 1.29525E-05
DataValue, 0.56, 1.32915E-05
DataValue, 0.57000000000000006, 1.33983E-05
DataValue, 0.58, 1.4213100000000001E-05
DataValue, 0.59, 1.23684E-05
DataValue, 0.6, 1.41248E-05
DataValue, 0.61, 1.54223E-05
DataValue, 0.62, 1.63995E-05
DataValue, 0.63, 1.69521E-05
DataValue, 0.64, 1.86386E-05
DataValue, 0.65, 1.87757E-05
DataValue, 0.66, 1.82084E-05
DataValue, 0.67, 1.82608E-05
DataValue, 0.68, 0.0001000003
DataValue, 0.69000000000000006, 0.0001000003
DataValue, 0.70000000000000007, 0.0001000004
DataValue, 0.71, 0.0001000003
DataValue, 0.72, 0.0001000003
DataValue, 0.73, 0.0001000003
DataValue, 0.74, 0.0001000003
DataValue, 0.75, 0.0001000004
DataValue, 0.76, 0.0001000004
DataValue, 0.77, 0.0001000003
DataValue, 0.78, 0.0001000003
DataValue, 0.79, 0.0001000003
DataValue, 0.8, 0.0001000003
DataValue, 0.81, 0.0001000004
DataValue, 0.82000000000000006, 0.0001000004
DataValue, 0.83000000000000007, 0.0001000004
DataValue, 0.84, 0.0001000003
DataValue, 0.85, 0.0001000003
DataValue, 0.86, 0.0001000003
DataValue, 0.87, 0.0001000004
DataValue, 0.88, 0.0001000005
DataValue, 0.89, 0.0001000005
DataValue, 0.9, 0.0001000003
DataValue, 0.91, 0.0001000003
DataValue, 0.92, 0.0001000005
DataValue, 0.93, 0.0001000004
DataValue, 0.94000000000000006, 0.0001000004
DataValue, 0.95000000000000007, 0.0001000003
DataValue, 0.96, 0.0001000003
DataValue, 0.97, 0.0001000004
DataValue, 0.98, 0.0001000004
DataValue, 0.99, 0.0001000004
DataValue, 1, 0.0001000003
DataValue, 1.01, 0.0001000002
DataValue, 1.02, 0.0001000003
DataValue, 1.03, 0.0001000005
DataValue, 1.04, 0.0001000004
DataValue, 1.05, 0.0001000004
DataValue, 1.06, 0.0001000004
DataValue, 1.07, 0.0001000004
DataValue, 1.08, 0.0001000004
DataValue, 1.09, 0.0001000004
DataValue, 1.1, 0.0001000003
DataValue, 1.11, 0.0001000004
DataValue, 1.12, 0.0001000005
DataValue, 1.1300000000000001, 0.0001000005
DataValue, 1.1400000000000001, 0.0001000004
DataValue, 1.1500000000000001, 0.0001000004
DataValue, 1.16, 0.0001000004
DataValue, 1.17, 0.0001000003
DataValue, 1.18, 0.0001000005
DataValue, 1.19, 0.0001000003
DataValue, 1.2, 0.0001000003
DataValue, 1.21, 0.0001000004
DataValue, 1.22, 0.0001000003
DataValue, 1.23, 0.0001000003
DataValue, 1.24, 0.0001000004
DataValue, 1.25, 0.0001000005
DataValue, 1.26, 0.0001000004
DataValue, 1.27, 0.0001000003
DataValue, 1.28, 0.0001000004
DataValue, 1.29, 0.0001000005
DataValue, 1.3, 0.0001000004
DataValue, 1.31, 0.0001000004
DataValue, 1.32, 0.0001000004
DataValue, 1.33, 0.0001000005
DataValue, 1.34, 0.0001000004
DataValue, 1.35, 0.0001000005
DataValue, 1.36, 0.0001000004
DataValue, 1.37, 0.0001000004
DataValue, 1.3800000000000001, 0.0001000005
DataValue, 1.3900000000000001, 0.0001000005
DataValue, 1.4000000000000001, 0.0001000005
DataValue, 1.41, 0.0001000005
DataValue, 1.42, 0.0001000004
DataValue, 1.43, 0.0001000004
DataValue, 1.44, 0.0001000004
DataValue, 1.45, 0.0001000004
DataValue, 1.46, 0.0001000005
DataValue, 1.47, 0.0001000004
DataValue, 1.48, 0.0001000005
DataValue, 1.49, 0.0001000004
DataValue, 1.5, 0.0001000005
DataValue, 1.51, 0.0001000004
DataValue, 1.52, 0.0001000004
DataValue, 1.53, 0.0001000004
DataValue, 1.54, 0.0001000004
DataValue, 1.55, 0.0001000004
DataValue, 1.56, 0.0001000005
DataValue, 1.57, 0.0001000004
DataValue, 1.58, 0.0001000004
DataValue, 1.59, 0.0001000005
DataValue, 1.6, 0.0001000004
DataValue, 1.61, 0.0001000005
DataValue, 1.62, 0.0001000004
DataValue, 1.6300000000000001, 0.0001000004
DataValue, 1.6400000000000001, 0.0001000005
DataValue, 1.6500000000000001, 0.0001000006
DataValue, 1.6600000000000001, 0.0001000005
DataValue, 1.67, 0.0001000005
DataValue, 1.68, 0.0001000004
DataValue, 1.69, 0.0001000005
DataValue, 1.7, 0.0001000005
DataValue, 1.71, 0.0001000005
DataValue, 1.72, 0.0001000004
DataValue, 1.73, 0.0001000003
DataValue, 1.74, 0.0001000003
DataValue, 1.75, 0.0001000004
DataValue, 1.76, 0.0001000004
DataValue, 1.77, 0.0001000004
DataValue, 1.78, 0.0001000003
DataValue, 1.79, 0.0001000004
DataValue, 1.8, 0.0001000003
DataValue, 1.81, 0.0001000005
DataValue, 1.82, 0.0001000004
DataValue, 1.83, 0.0001000005
DataValue, 1.84, 0.0001000005
DataValue, 1.85, 0.0001000005
DataValue, 1.86, 0.0001000005
DataValue, 1.87, 0.0001000004
DataValue, 1.8800000000000001, 0.0001000005
DataValue, 1.8900000000000001, 0.0001000004
DataValue, 1.9000000000000001, 0.0001000005
DataValue, 1.9100000000000001, 0.0001000004
DataValue, 1.92, 0.0001000005
DataValue, 1.93, 0.0001000004
DataValue, 1.94, 0.0001000004
DataValue, 1.95, 0.0001000005
DataValue, 1.96, 0.0001000005
DataValue, 1.97, 0.0001000005
DataValue, 1.98, 0.0001000006
DataValue, 1.99, 0.0001000005
DataValue, 2, 0.0001000005
DataValue, 2.0100000000000002, 0.0001000004
DataValue, 2.02, 0.0001000004
DataValue, 2.0300000000000002, 0.0001000004
DataValue, 2.04, 0.0001000005
DataValue, 2.05, 0.0001000005
DataValue, 2.06, 0.0001000005
DataValue, 2.07, 0.0001000005
DataValue, 2.08, 0.0001000003
DataValue, 2.09, 0.0001000005
DataValue, 2.1, 0.0001000005
DataValue, 2.11, 0.0001000005
DataValue, 2.12, 0.0001000005
DataValue, 2.13, 0.0001000005
DataValue, 2.14, 0.0001000005
DataValue, 2.15, 0.0001000004
DataValue, 2.16, 0.0001000005
DataValue, 2.17, 0.0001000005
DataValue, 2.18, 0.0001000004
DataValue, 2.19, 0.0001000004
DataValue, 2.2, 0.0001000005
DataValue, 2.21, 0.0001000005
DataValue, 2.22, 0.0001000004
DataValue, 2.23, 0.0001000005
DataValue, 2.24, 0.0001000004
DataValue, 2.25, 0.0001000005
DataValue, 2.2600000000000002, 0.0001000005
DataValue, 2.27, 0.0001000005
DataValue, 2.2800000000000002, 0.0001000004
DataValue, 2.29, 0.0001000005
DataValue, 2.3000000000000003, 0.0001000004
DataValue, 2.31, 0.0001000005
DataValue, 2.32, 0.0001000005
DataValue, 2.33, 0.0001000005
DataValue, 2.34, 0.0001000003
DataValue, 2.35, 0.0001000005
DataValue, 2.36, 0.0001000005
DataValue, 2.37, 0.0001000005
DataValue, 2.38, 0.0001000006
DataValue, 2.39, 0.0001000004
DataValue, 2.4, 0.0001000005
DataValue, 2.41, 0.0001000004
DataValue, 2.42, 0.0001000005
DataValue, 2.43, 0.0001000005
DataValue, 2.44, 0.0001000004
DataValue, 2.45, 0.0001000005
DataValue, 2.46, 0.0001000005
DataValue, 2.47, 0.0001000004
DataValue, 2.48, 0.0001000005
DataValue, 2.49, 0.0001000004
DataValue, 2.5, 0.0001000005
DataValue, 2.5100000000000002, 0.0001000005
DataValue, 2.52, 0.0001000005
DataValue, 2.5300000000000002, 0.0001000006
DataValue, 2.54, 0.0001000005
DataValue, 2.5500000000000003, 0.0001000005
DataValue, 2.56, 0.0001000004
DataValue, 2.57, 0.0001000004
DataValue, 2.58, 0.0001000005
DataValue, 2.59, 0.0001000005
DataValue, 2.6, 0.0001000004
DataValue, 2.61, 0.0001000005
DataValue, 2.62, 0.0001000004
DataValue, 2.63, 0.0001000004
DataValue, 2.64, 0.0001000005
DataValue, 2.65, 0.0001000005
DataValue, 2.66, 0.0001000005
DataValue, 2.67, 0.0001000004
DataValue, 2.68, 0.0001000005
DataValue, 2.69, 0.0001000004
DataValue, 2.7, 0.0001000004
DataValue, 2.71, 0.0001000005
DataValue, 2.72, 0.0001000004
DataValue, 2.73, 0.0001000005
DataValue, 2.74, 0.0001000005
DataValue, 2.75, 0.0001000005
DataValue, 2.7600000000000002, 0.0001000005
DataValue, 2.77, 0.0001000005
DataValue, 2.7800000000000002, 0.0001000005
DataValue, 2.79, 0.0001000006
DataValue, 2.8000000000000003, 0.0001000004
DataValue, 2.81, 0.0001000005
DataValue, 2.82, 0.0001000005
DataValue, 2.83, 0.0001000004
DataValue, 2.84, 0.0001000005
DataValue, 2.85, 0.0001000005
DataValue, 2.86, 0.0001000005
DataValue, 2.87, 0.0001000005
DataValue, 2.88, 0.0001000005
DataValue, 2.89, 0.0001000005
DataValue, 2.9, 0.0001000005
DataValue, 2.91, 0.0001000005
DataValue, 2.92, 0.0001000005
DataValue, 2.93, 0.0001000005
DataValue, 2.94, 0.0001000005
DataValue, 2.95, 0.0001000005
DataValue, 2.96, 0.0001000005
DataValue, 2.97, 0.0001000006
DataValue, 2.98, 0.0001000004
DataValue, 2.99, 0.0001000006
DataValue, 3, 0.0001000005
DataValue, 2.99, 0.0001000005
DataValue, 2.98, 0.0001000004
DataValue, 2.97, 0.0001000005
DataValue, 2.96, 0.0001000005
DataValue, 2.95, 0.0001000005
DataValue, 2.94, 0.0001000004
DataValue, 2.93, 0.0001000004
DataValue, 2.92, 0.0001000004
DataValue, 2.91, 0.0001000004
DataValue, 2.9, 0.0001000005
DataValue, 2.89, 0.0001000005
DataValue, 2.88, 0.0001000005
DataValue, 2.87, 0.0001000004
DataValue, 2.86, 0.0001000005
DataValue, 2.85, 0.0001000004
DataValue, 2.84, 0.0001000005
DataValue, 2.83, 0.0001000006
DataValue, 2.82, 0.0001000005
DataValue, 2.81, 0.0001000004
DataValue, 2.8000000000000003, 0.0001000005
DataValue, 2.79, 0.0001000005
DataValue, 2.7800000000000002, 0.0001000004
DataValue, 2.77, 0.0001000005
DataValue, 2.7600000000000002, 0.0001000004
DataValue, 2.75, 0.0001000005
DataValue, 2.74, 0.0001000004
DataValue, 2.73, 0.0001000006
DataValue, 2.72, 0.0001000005
DataValue, 2.71, 0.0001000006
DataValue, 2.7, 0.0001000005
DataValue, 2.69, 0.0001000005
DataValue, 2.68, 0.0001000004
DataValue, 2.67, 0.0001000004
DataValue, 2.66, 0.0001000005
DataValue, 2.65, 0.0001000004
DataValue, 2.64, 0.0001000005
DataValue, 2.63, 0.0001000005
DataValue, 2.62, 0.0001000004
DataValue, 2.61, 0.0001000004
DataValue, 2.6, 0.0001000004
DataValue, 2.59, 0.0001000004
DataValue, 2.58, 0.0001000005
DataValue, 2.57, 0.0001000005
DataValue, 2.56, 0.0001000005
DataValue, 2.5500000000000003, 0.0001000005
DataValue, 2.54, 0.0001000005
DataValue, 2.5300000000000002, 0.0001000004
DataValue, 2.52, 0.0001000004
DataValue, 2.5100000000000002, 0.0001000005
DataValue, 2.5, 0.0001000004
DataValue, 2.49, 0.0001000004
DataValue, 2.48, 0.0001000003
DataValue, 2.47, 0.0001000004
DataValue, 2.46, 0.0001000004
DataValue, 2.45, 0.0001000004
DataValue, 2.44, 0.0001000005
DataValue, 2.43, 0.0001000005
DataValue, 2.42, 0.0001000005
DataValue, 2.41, 0.0001000005
DataValue, 2.4, 0.0001000003
DataValue, 2.39, 0.0001000005
DataValue, 2.38, 0.0001000004
DataValue, 2.37, 0.0001000004
DataValue, 2.36, 0.0001000005
DataValue, 2.35, 0.0001000005
DataValue, 2.34, 0.0001000004
DataValue, 2.33, 0.0001000005
DataValue, 2.32, 0.0001000004
DataValue, 2.31, 0.0001000004
DataValue, 2.3000000000000003, 0.0001000004
DataValue, 2.29, 0.0001000005
DataValue, 2.2800000000000002, 0.0001000004
DataValue, 2.27, 0.0001000005
DataValue, 2.2600000000000002, 0.0001000005
DataValue, 2.25, 0.0001000005
DataValue, 2.24, 0.0001000004
DataValue, 2.23, 0.0001000004
DataValue, 2.22, 0.0001000005
DataValue, 2.21, 0.0001000004
DataValue, 2.2, 0.0001000004
DataValue, 2.19, 0.0001000004
DataValue, 2.18, 0.0001000005
DataValue, 2.17, 0.0001000003
DataValue, 2.16, 0.0001000005
DataValue, 2.15, 0.0001000005
DataValue, 2.14, 0.0001000004
DataValue, 2.13, 0.0001000004
DataValue, 2.12, 0.0001000005
DataValue, 2.11, 0.0001000004
DataValue, 2.1, 0.0001000004
DataValue, 2.09, 0.0001000004
DataValue, 2.08, 0.0001000005
DataValue, 2.07, 0.0001000004
DataValue, 2.06, 0.0001000005
DataValue, 2.05, 0.0001000005
DataValue, 2.04, 0.0001000006
DataValue, 2.0300000000000002, 0.0001000004
DataValue, 2.02, 0.0001000004
DataValue, 2.0100000000000002, 0.0001000004
DataValue, 2, 0.0001000005
DataValue, 1.99, 0.0001000005
DataValue, 1.98, 0.0001000003
DataValue, 1.97, 0.0001000005
DataValue, 1.96, 0.0001000004
DataValue, 1.95, 0.0001000003
DataValue, 1.94, 0.0001000004
DataValue, 1.93, 0.0001000003
DataValue, 1.92, 0.0001000004
DataValue, 1.9100000000000001, 0.0001000004
DataValue, 1.9000000000000001, 0.0001000003
DataValue, 1.8900000000000001, 0.0001000005
DataValue, 1.8800000000000001, 0.0001000004
DataValue, 1.87, 0.0001000005
DataValue, 1.86, 0.0001000005
DataValue, 1.85, 0.0001000005
DataValue, 1.84, 0.0001000005
DataValue, 1.83, 0.0001000004
DataValue, 1.82, 0.0001000004
DataValue, 1.81, 0.0001000004
DataValue, 1.8, 0.0001000004
DataValue, 1.79, 0.0001000004
DataValue, 1.78, 0.0001000005
DataValue, 1.77, 0.0001000004
DataValue, 1.76, 0.0001000004
DataValue, 1.75, 0.0001000004
DataValue, 1.74, 0.0001000004
DataValue, 1.73, 0.0001000004
DataValue, 1.72, 0.0001000004
DataValue, 1.71, 0.0001000003
DataValue, 1.7, 0.0001000005
DataValue, 1.69, 0.0001000004
DataValue, 1.68, 0.0001000005
DataValue, 1.67, 0.0001000004
DataValue, 1.6600000000000001, 0.0001000004
DataValue, 1.6500000000000001, 0.0001000004
DataValue, 1.6400000000000001, 0.0001000004
DataValue, 1.6300000000000001, 0.0001000005
DataValue, 1.62, 0.0001000005
DataValue, 1.61, 0.0001000004
DataValue, 1.6, 0.0001000005
DataValue, 1.59, 0.0001000005
DataValue, 1.58, 0.0001000005
DataValue, 1.57, 0.0001000005
DataValue, 1.56, 0.0001000004
DataValue, 1.55, 0.0001000003
DataValue, 1.54, 0.0001000004
DataValue, 1.53, 0.0001000004
DataValue, 1.52, 0.0001000005
DataValue, 1.51, 0.0001000005
DataValue, 1.5, 0.0001000004
DataValue, 1.49, 0.0001000005
DataValue, 1.48, 0.0001000004
DataValue, 1.47, 0.0001000004
DataValue, 1.46, 0.0001000004
DataValue, 1.45, 0.0001000005
DataValue, 1.44, 0.0001000004
DataValue, 1.43, 0.0001000005
DataValue, 1.42, 0.0001000005
DataValue, 1.41, 0.0001000005
DataValue, 1.4000000000000001, 0.0001000004
DataValue, 1.3900000000000001, 0.0001000004
DataValue, 1.3800000000000001, 0.0001000004
DataValue, 1.37, 0.0001000005
DataValue, 1.36, 0.0001000004
DataValue, 1.35, 0.0001000005
DataValue, 1.34, 0.0001000004
DataValue, 1.33, 0.0001000004
DataValue, 1.32, 0.0001000004
DataValue, 1.31, 0.0001000004
DataValue, 1.3, 0.0001000004
DataValue, 1.29, 0.0001000005
DataValue, 1.28, 0.0001000004
DataValue, 1.27, 0.0001000004
DataValue, 1.26, 0.0001000005
DataValue, 1.25, 0.0001000004
DataValue, 1.24, 0.0001000005
DataValue, 1.23, 0.0001000004
DataValue, 1.22, 0.0001000004
DataValue, 1.21, 0.0001000005
DataValue, 1.2, 0.0001000003
DataValue, 1.19, 0.0001000004
DataValue, 1.18, 0.0001000005
DataValue, 1.17, 0.0001000003
DataValue, 1.16, 0.0001000003
DataValue, 1.1500000000000001, 0.0001000005
DataValue, 1.1400000000000001, 0.0001000004
DataValue, 1.1300000000000001, 0.0001000005
DataValue, 1.12, 0.0001000004
DataValue, 1.11, 0.0001000005
DataValue, 1.1, 0.0001000005
DataValue, 1.09, 0.0001000005
DataValue, 1.08, 0.0001000005
DataValue, 1.07, 0.0001000004
DataValue, 1.06, 0.0001000004
DataValue, 1.05, 0.0001000005
DataValue, 1.04, 0.0001000004
DataValue, 1.03, 0.0001000004
DataValue, 1.02, 0.0001000004
DataValue, 1.01, 0.0001000004
DataValue, 1, 0.0001000004
DataValue, 0.99, 0.0001000004
DataValue, 0.98, 0.0001000004
DataValue, 0.97, 0.0001000005
DataValue, 0.96, 0.0001000005
DataValue, 0.95000000000000007, 0.0001000005
DataValue, 0.94000000000000006, 0.0001000005
DataValue, 0.93, 0.0001000005
DataValue, 0.92, 0.0001000004
DataValue, 0.91, 0.0001000004
DataValue, 0.9, 0.0001000003
DataValue, 0.89, 0.0001000005
DataValue, 0.88, 0.0001000004
DataValue, 0.87, 0.0001000005
DataValue, 0.86, 0.0001000003
DataValue, 0.85, 0.0001000005
DataValue, 0.84, 0.0001000004
DataValue, 0.83000000000000007, 0.0001000003
DataValue, 0.82000000000000006, 0.0001000004
DataValue, 0.81, 0.0001000004
DataValue, 0.8, 0.0001000005
DataValue, 0.79, 0.0001000004
DataValue, 0.78, 0.0001000004
DataValue, 0.77, 0.0001000003
DataValue, 0.76, 0.0001000004
DataValue, 0.75, 0.0001000005
DataValue, 0.74, 0.0001000005
DataValue, 0.73, 0.0001000003
DataValue, 0.72, 0.0001000004
DataValue, 0.71, 0.0001000005
DataValue, 0.70000000000000007, 0.0001000004
DataValue, 0.69000000000000006, 0.0001000005
DataValue, 0.68, 0.0001000005
DataValue, 0.67, 0.0001000005
DataValue, 0.66, 0.0001000005
DataValue, 0.65, 0.0001000005
DataValue, 0.64, 0.0001000004
DataValue, 0.63, 0.0001000005
DataValue, 0.62, 0.0001000005
DataValue, 0.61, 0.0001000004
DataValue, 0.6, 0.0001000003
DataValue, 0.59, 0.0001000004
DataValue, 0.58, 0.0001000005
DataValue, 0.57000000000000006, 0.0001000005
DataValue, 0.56, 0.0001000004
DataValue, 0.55, 0.0001000005
DataValue, 0.54, 0.0001000005
DataValue, 0.53, 9.946170000000001E-05
DataValue, 0.52, 9.66093E-05
DataValue, 0.51, 9.17596E-05
DataValue, 0.5, 8.7909100000000008E-05
DataValue, 0.49, 8.44193E-05
DataValue, 0.48, 8.05643E-05
DataValue, 0.47000000000000003, 7.68633E-05
DataValue, 0.46, 7.29077E-05
DataValue, 0.45, 6.92771E-05
DataValue, 0.44, 6.58182E-05
DataValue, 0.43, 6.24179E-05
DataValue, 0.42, 5.9090100000000005E-05
DataValue, 0.41000000000000003, 5.5961E-05
DataValue, 0.4, 5.2718E-05
DataValue, 0.39, 4.98518E-05
DataValue, 0.38, 4.72307E-05
DataValue, 0.37, 4.4472300000000004E-05
DataValue, 0.36, 4.18539E-05
DataValue, 0.35000000000000003, 3.93253E-05
DataValue, 0.34, 3.69095E-05
DataValue, 0.33, 3.4527100000000004E-05
DataValue, 0.32, 3.21957E-05
DataValue, 0.31, 3.00773E-05
DataValue, 0.3, 2.81147E-05
DataValue, 0.29, 2.62718E-05
DataValue, 0.28, 2.44192E-05
DataValue, 0.27, 2.2796900000000002E-05
DataValue, 0.26, 2.1270300000000002E-05
DataValue, 0.25, 1.9833200000000002E-05
DataValue, 0.24, 1.83156E-05
DataValue, 0.23, 1.70324E-05
DataValue, 0.22, 1.58087E-05
DataValue, 0.21, 1.4710700000000001E-05
