
SetupTitle, SET+RESET
ApplicationTest, DoubleSweep_IV, Public
TestParameter, Name, Port1, Port2, Vstart1, Vstop1, Vstep1, Compliance1, Vstart2, Vstop2, Vstep2, Compliance2, IntegTime, HoldTime, DelayTime, MinRange
TestParameter, Value, SMU1:MP	MPSMU, SMU2:MP	MPSMU, 0, 3, 0.01, 0.0001, 0, -1.3, 0.01, 0.1, MEDIUM, 0, 0, 1nA
DutParameter, Name, Temp, CCMax
DutParameter, Value, 25, 0.1
MetaData, TestRecord.EntryPoint, true
MetaData, TestRecord.RecordTime, 10/13/2025 15:36:27
MetaData, TestRecord.TestTarget, 
MetaData, TestRecord.IterationIndex, 5
MetaData, TestRecord.Preservation, true
MetaData, TestRecord.Flag, 
MetaData, TestRecord.Remarks, 
MetaData, TestRecord.LinkKey, 0f5ae9be-2fb6-4a9d-9931-8cdb431d6d12
MetaData, TestRecord.Parameters, 
Dimension1, 861, 861
Dimension2, 1, 1
DataName, V1, I1
DataValue, 0, 2.2027800000000002E-10
DataValue, 0.01, 2.88291E-08
DataValue, 0.02, 5.8959199999999996E-08
DataValue, 0.03, 9.2067499999999987E-08
DataValue, 0.04, 1.25657E-07
DataValue, 0.05, 1.6322999999999999E-07
DataValue, 0.06, 2.0272399999999998E-07
DataValue, 0.07, 2.32041E-07
DataValue, 0.08, 2.77616E-07
DataValue, 0.09, 3.16797E-07
DataValue, 0.1, 3.97862E-07
DataValue, 0.11, 5.50644E-07
DataValue, 0.12, 6.32554E-07
DataValue, 0.13, 7.06176E-07
DataValue, 0.14, 7.26997E-07
DataValue, 0.15, 7.19904E-07
DataValue, 0.16, 7.19105E-07
DataValue, 0.17, 7.11542E-07
DataValue, 0.18, 8.5112499999999994E-07
DataValue, 0.19, 9.49294E-07
DataValue, 0.2, 1.034719E-06
DataValue, 0.21, 9.8444E-07
DataValue, 0.22, 1.0820900000000001E-06
DataValue, 0.23, 1.08026E-06
DataValue, 0.24, 1.09558E-06
DataValue, 0.25, 1.20167E-06
DataValue, 0.26, 1.3017000000000002E-06
DataValue, 0.27, 1.8881500000000003E-06
DataValue, 0.28, 2.1077700000000004E-06
DataValue, 0.29, 2.1537800000000003E-06
DataValue, 0.3, 2.4424E-06
DataValue, 0.31, 2.9859700000000003E-06
DataValue, 0.32, 3.3158400000000003E-06
DataValue, 0.33, 3.5641500000000004E-06
DataValue, 0.34, 3.7561700000000006E-06
DataValue, 0.35000000000000003, 3.3709100000000005E-06
DataValue, 0.36, 3.3618E-06
DataValue, 0.37, 3.4995200000000003E-06
DataValue, 0.38, 3.7852400000000005E-06
DataValue, 0.39, 3.7506500000000002E-06
DataValue, 0.4, 3.6584100000000003E-06
DataValue, 0.41000000000000003, 3.7974200000000004E-06
DataValue, 0.42, 4.15429E-06
DataValue, 0.43, 4.2354900000000005E-06
DataValue, 0.44, 4.7148100000000009E-06
DataValue, 0.45, 4.7108600000000007E-06
DataValue, 0.46, 5.0747000000000007E-06
DataValue, 0.47000000000000003, 5.0641200000000009E-06
DataValue, 0.48, 6.0232200000000008E-06
DataValue, 0.49, 5.7564900000000009E-06
DataValue, 0.5, 5.9074E-06
DataValue, 0.51, 6.356550000000001E-06
DataValue, 0.52, 7.7746E-06
DataValue, 0.53, 1.014822E-05
DataValue, 0.54, 6.28721E-05
DataValue, 0.55, 0.0001000006
DataValue, 0.56, 0.0001000005
DataValue, 0.57000000000000006, 0.0001000005
DataValue, 0.58, 0.0001000005
DataValue, 0.59, 0.0001000005
DataValue, 0.6, 0.0001000006
DataValue, 0.61, 0.0001000005
DataValue, 0.62, 0.0001000005
DataValue, 0.63, 0.0001000005
DataValue, 0.64, 0.0001000005
DataValue, 0.65, 0.0001000005
DataValue, 0.66, 0.0001000004
DataValue, 0.67, 0.0001000005
DataValue, 0.68, 0.0001000005
DataValue, 0.69000000000000006, 0.0001000005
DataValue, 0.70000000000000007, 0.0001000005
DataValue, 0.71, 0.0001000004
DataValue, 0.72, 0.0001000005
DataValue, 0.73, 0.0001000004
DataValue, 0.74, 0.0001000005
DataValue, 0.75, 0.0001000005
DataValue, 0.76, 0.0001000005
DataValue, 0.77, 0.0001000005
DataValue, 0.78, 0.0001000005
DataValue, 0.79, 0.0001000004
DataValue, 0.8, 0.0001000005
DataValue, 0.81, 0.0001000005
DataValue, 0.82000000000000006, 0.0001000004
DataValue, 0.83000000000000007, 0.0001000005
DataValue, 0.84, 0.0001000004
DataValue, 0.85, 0.0001000005
DataValue, 0.86, 0.0001000005
DataValue, 0.87, 0.0001000004
DataValue, 0.88, 0.0001000004
DataValue, 0.89, 0.0001000004
DataValue, 0.9, 0.0001000005
DataValue, 0.91, 0.0001000005
DataValue, 0.92, 0.0001000005
DataValue, 0.93, 0.0001000005
DataValue, 0.94000000000000006, 0.0001000005
DataValue, 0.95000000000000007, 0.0001000005
DataValue, 0.96, 0.0001000004
DataValue, 0.97, 0.0001000005
DataValue, 0.98, 0.0001000004
DataValue, 0.99, 0.0001000004
DataValue, 1, 0.0001000005
DataValue, 1.01, 0.0001000005
DataValue, 1.02, 0.0001000006
DataValue, 1.03, 0.0001000004
DataValue, 1.04, 0.0001000006
DataValue, 1.05, 0.0001000005
DataValue, 1.06, 0.0001000005
DataValue, 1.07, 0.0001000005
DataValue, 1.08, 0.0001000004
DataValue, 1.09, 0.0001000004
DataValue, 1.1, 0.0001000006
DataValue, 1.11, 0.0001000005
DataValue, 1.12, 0.0001000006
DataValue, 1.1300000000000001, 0.0001000005
DataValue, 1.1400000000000001, 0.0001000005
DataValue, 1.1500000000000001, 0.0001000005
DataValue, 1.16, 0.0001000004
DataValue, 1.17, 0.0001000005
DataValue, 1.18, 0.0001000004
DataValue, 1.19, 0.0001000004
DataValue, 1.2, 0.0001000005
DataValue, 1.21, 0.0001000005
DataValue, 1.22, 0.0001000004
DataValue, 1.23, 0.0001000005
DataValue, 1.24, 0.0001000004
DataValue, 1.25, 0.0001000005
DataValue, 1.26, 0.0001000005
DataValue, 1.27, 0.0001000006
DataValue, 1.28, 0.0001000005
DataValue, 1.29, 0.0001000005
DataValue, 1.3, 0.0001000005
DataValue, 1.31, 0.0001000003
DataValue, 1.32, 0.0001000005
DataValue, 1.33, 0.0001000005
DataValue, 1.34, 0.0001000005
DataValue, 1.35, 0.0001000005
DataValue, 1.36, 0.0001000004
DataValue, 1.37, 0.0001000005
DataValue, 1.3800000000000001, 0.0001000005
DataValue, 1.3900000000000001, 0.0001000005
DataValue, 1.4000000000000001, 0.0001000005
DataValue, 1.41, 0.0001000005
DataValue, 1.42, 0.0001000006
DataValue, 1.43, 0.0001000004
DataValue, 1.44, 0.0001000006
DataValue, 1.45, 0.0001000005
DataValue, 1.46, 0.0001000005
DataValue, 1.47, 0.0001000004
DataValue, 1.48, 0.0001000005
DataValue, 1.49, 0.0001000005
DataValue, 1.5, 0.0001000005
DataValue, 1.51, 0.0001000005
DataValue, 1.52, 0.0001000005
DataValue, 1.53, 0.0001000005
DataValue, 1.54, 0.0001000004
DataValue, 1.55, 0.0001000005
DataValue, 1.56, 0.0001000005
DataValue, 1.57, 0.0001000004
DataValue, 1.58, 0.0001000005
DataValue, 1.59, 0.0001000005
DataValue, 1.6, 0.0001000005
DataValue, 1.61, 0.0001000004
DataValue, 1.62, 0.0001000006
DataValue, 1.6300000000000001, 0.0001000005
DataValue, 1.6400000000000001, 0.0001000005
DataValue, 1.6500000000000001, 0.0001000005
DataValue, 1.6600000000000001, 0.0001000005
DataValue, 1.67, 0.0001000004
DataValue, 1.68, 0.0001000005
DataValue, 1.69, 0.0001000005
DataValue, 1.7, 0.0001000005
DataValue, 1.71, 0.0001000004
DataValue, 1.72, 0.0001000005
DataValue, 1.73, 0.0001000005
DataValue, 1.74, 0.0001000005
DataValue, 1.75, 0.0001000005
DataValue, 1.76, 0.0001000005
DataValue, 1.77, 0.0001000006
DataValue, 1.78, 0.0001000006
DataValue, 1.79, 0.0001000005
DataValue, 1.8, 0.0001000005
DataValue, 1.81, 0.0001000006
DataValue, 1.82, 0.0001000005
DataValue, 1.83, 0.0001000005
DataValue, 1.84, 0.0001000005
DataValue, 1.85, 0.0001000006
DataValue, 1.86, 0.0001000005
DataValue, 1.87, 0.0001000005
DataValue, 1.8800000000000001, 0.0001000005
DataValue, 1.8900000000000001, 0.0001000005
DataValue, 1.9000000000000001, 0.0001000005
DataValue, 1.9100000000000001, 0.0001000006
DataValue, 1.92, 0.0001000005
DataValue, 1.93, 0.0001000005
DataValue, 1.94, 0.0001000006
DataValue, 1.95, 0.0001000005
DataValue, 1.96, 0.0001000006
DataValue, 1.97, 0.0001000005
DataValue, 1.98, 0.0001000005
DataValue, 1.99, 0.0001000004
DataValue, 2, 0.0001000005
DataValue, 2.0100000000000002, 0.0001000004
DataValue, 2.02, 0.0001000006
DataValue, 2.0300000000000002, 0.0001000005
DataValue, 2.04, 0.0001000005
DataValue, 2.05, 0.0001000006
DataValue, 2.06, 0.0001000005
DataValue, 2.07, 0.0001000006
DataValue, 2.08, 0.0001000006
DataValue, 2.09, 0.0001000006
DataValue, 2.1, 0.0001000005
DataValue, 2.11, 0.0001000005
DataValue, 2.12, 0.0001000006
DataValue, 2.13, 0.0001000005
DataValue, 2.14, 0.0001000005
DataValue, 2.15, 0.0001000005
DataValue, 2.16, 0.0001000005
DataValue, 2.17, 0.0001000005
DataValue, 2.18, 0.0001000006
DataValue, 2.19, 0.0001000004
DataValue, 2.2, 0.0001000004
DataValue, 2.21, 0.0001000005
DataValue, 2.22, 0.0001000005
DataValue, 2.23, 0.0001000004
DataValue, 2.24, 0.0001000004
DataValue, 2.25, 0.0001000005
DataValue, 2.2600000000000002, 0.0001000005
DataValue, 2.27, 0.0001000005
DataValue, 2.2800000000000002, 0.0001000004
DataValue, 2.29, 0.0001000005
DataValue, 2.3000000000000003, 0.0001000004
DataValue, 2.31, 0.0001000005
DataValue, 2.32, 0.0001000005
DataValue, 2.33, 0.0001000003
DataValue, 2.34, 0.0001000005
DataValue, 2.35, 0.0001000005
DataValue, 2.36, 0.0001000005
DataValue, 2.37, 0.0001000005
DataValue, 2.38, 0.0001000004
DataValue, 2.39, 0.0001000005
DataValue, 2.4, 0.0001000005
DataValue, 2.41, 0.0001000005
DataValue, 2.42, 0.0001000005
DataValue, 2.43, 0.0001000006
DataValue, 2.44, 0.0001000005
DataValue, 2.45, 0.0001000005
DataValue, 2.46, 0.0001000005
DataValue, 2.47, 0.0001000006
DataValue, 2.48, 0.0001000005
DataValue, 2.49, 0.0001000005
DataValue, 2.5, 0.0001000005
DataValue, 2.5100000000000002, 0.0001000005
DataValue, 2.52, 0.0001000004
DataValue, 2.5300000000000002, 0.0001000005
DataValue, 2.54, 0.0001000005
DataValue, 2.5500000000000003, 0.0001000005
DataValue, 2.56, 0.0001000005
DataValue, 2.57, 0.0001000006
DataValue, 2.58, 0.0001000005
DataValue, 2.59, 0.0001000006
DataValue, 2.6, 0.0001000004
DataValue, 2.61, 0.0001000005
DataValue, 2.62, 0.0001000006
DataValue, 2.63, 0.0001000005
DataValue, 2.64, 0.0001000005
DataValue, 2.65, 0.0001000005
DataValue, 2.66, 0.0001000004
DataValue, 2.67, 0.0001000005
DataValue, 2.68, 0.0001000005
DataValue, 2.69, 0.0001000005
DataValue, 2.7, 0.0001000005
DataValue, 2.71, 0.0001000005
DataValue, 2.72, 0.0001000005
DataValue, 2.73, 0.0001000005
DataValue, 2.74, 0.0001000005
DataValue, 2.75, 0.0001000005
DataValue, 2.7600000000000002, 0.0001000005
DataValue, 2.77, 0.0001000005
DataValue, 2.7800000000000002, 0.0001000004
DataValue, 2.79, 0.0001000005
DataValue, 2.8000000000000003, 0.0001000006
DataValue, 2.81, 0.0001000005
DataValue, 2.82, 0.0001000005
DataValue, 2.83, 0.0001000005
DataValue, 2.84, 0.0001000005
DataValue, 2.85, 0.0001000005
DataValue, 2.86, 0.0001000005
DataValue, 2.87, 0.0001000005
DataValue, 2.88, 0.0001000005
DataValue, 2.89, 0.0001000005
DataValue, 2.9, 0.0001000005
DataValue, 2.91, 0.0001000005
DataValue, 2.92, 0.0001000005
DataValue, 2.93, 0.0001000005
DataValue, 2.94, 0.0001000005
DataValue, 2.95, 0.0001000005
DataValue, 2.96, 0.0001000004
DataValue, 2.97, 0.0001000006
DataValue, 2.98, 0.0001000006
DataValue, 2.99, 0.0001000005
DataValue, 3, 0.0001000006
DataValue, 2.99, 0.0001000005
DataValue, 2.98, 0.0001000005
DataValue, 2.97, 0.0001000005
DataValue, 2.96, 0.0001000004
DataValue, 2.95, 0.0001000005
DataValue, 2.94, 0.0001000005
DataValue, 2.93, 0.0001000006
DataValue, 2.92, 0.0001000005
DataValue, 2.91, 0.0001000006
DataValue, 2.9, 0.0001000005
DataValue, 2.89, 0.0001000005
DataValue, 2.88, 0.0001000005
DataValue, 2.87, 0.0001000006
DataValue, 2.86, 0.0001000004
DataValue, 2.85, 0.0001000005
DataValue, 2.84, 0.0001000005
DataValue, 2.83, 0.0001000005
DataValue, 2.82, 0.0001000006
DataValue, 2.81, 0.0001000005
DataValue, 2.8000000000000003, 0.0001000005
DataValue, 2.79, 0.0001000006
DataValue, 2.7800000000000002, 0.0001000005
DataValue, 2.77, 0.0001000005
DataValue, 2.7600000000000002, 0.0001000005
DataValue, 2.75, 0.0001000006
DataValue, 2.74, 0.0001000005
DataValue, 2.73, 0.0001000005
DataValue, 2.72, 0.0001000005
DataValue, 2.71, 0.0001000005
DataValue, 2.7, 0.0001000005
DataValue, 2.69, 0.0001000005
DataValue, 2.68, 0.0001000005
DataValue, 2.67, 0.0001000005
DataValue, 2.66, 0.0001000005
DataValue, 2.65, 0.0001000005
DataValue, 2.64, 0.0001000005
DataValue, 2.63, 0.0001000005
DataValue, 2.62, 0.0001000005
DataValue, 2.61, 0.0001000005
DataValue, 2.6, 0.0001000005
DataValue, 2.59, 0.0001000005
DataValue, 2.58, 0.0001000006
DataValue, 2.57, 0.0001000005
DataValue, 2.56, 0.0001000005
DataValue, 2.5500000000000003, 0.0001000005
DataValue, 2.54, 0.0001000004
DataValue, 2.5300000000000002, 0.0001000005
DataValue, 2.52, 0.0001000005
DataValue, 2.5100000000000002, 0.0001000005
DataValue, 2.5, 0.0001000005
DataValue, 2.49, 0.0001000005
DataValue, 2.48, 0.0001000005
DataValue, 2.47, 0.0001000005
DataValue, 2.46, 0.0001000005
DataValue, 2.45, 0.0001000006
DataValue, 2.44, 0.0001000004
DataValue, 2.43, 0.0001000004
DataValue, 2.42, 0.0001000005
DataValue, 2.41, 0.0001000006
DataValue, 2.4, 0.0001000005
DataValue, 2.39, 0.0001000005
DataValue, 2.38, 0.0001000005
DataValue, 2.37, 0.0001000005
DataValue, 2.36, 0.0001000005
DataValue, 2.35, 0.0001000005
DataValue, 2.34, 0.0001000006
DataValue, 2.33, 0.0001000006
DataValue, 2.32, 0.0001000005
DataValue, 2.31, 0.0001000005
DataValue, 2.3000000000000003, 0.0001000005
DataValue, 2.29, 0.0001000005
DataValue, 2.2800000000000002, 0.0001000005
DataValue, 2.27, 0.0001000005
DataValue, 2.2600000000000002, 0.0001000005
DataValue, 2.25, 0.0001000005
DataValue, 2.24, 0.0001000006
DataValue, 2.23, 0.0001000006
DataValue, 2.22, 0.0001000006
DataValue, 2.21, 0.0001000006
DataValue, 2.2, 0.0001000004
DataValue, 2.19, 0.0001000005
DataValue, 2.18, 0.0001000005
DataValue, 2.17, 0.0001000004
DataValue, 2.16, 0.0001000005
DataValue, 2.15, 0.0001000005
DataValue, 2.14, 0.0001000005
DataValue, 2.13, 0.0001000005
DataValue, 2.12, 0.0001000005
DataValue, 2.11, 0.0001000005
DataValue, 2.1, 0.0001000005
DataValue, 2.09, 0.0001000005
DataValue, 2.08, 0.0001000005
DataValue, 2.07, 0.0001000005
DataValue, 2.06, 0.0001000005
DataValue, 2.05, 0.0001000005
DataValue, 2.04, 0.0001000005
DataValue, 2.0300000000000002, 0.0001000005
DataValue, 2.02, 0.0001000005
DataValue, 2.0100000000000002, 0.0001000005
DataValue, 2, 0.0001000005
DataValue, 1.99, 0.0001000004
DataValue, 1.98, 0.0001000005
DataValue, 1.97, 0.0001000005
DataValue, 1.96, 0.0001000005
DataValue, 1.95, 0.0001000004
DataValue, 1.94, 0.0001000004
DataValue, 1.93, 0.0001000006
DataValue, 1.92, 0.0001000005
DataValue, 1.9100000000000001, 0.0001000005
DataValue, 1.9000000000000001, 0.0001000005
DataValue, 1.8900000000000001, 0.0001000005
DataValue, 1.8800000000000001, 0.0001000004
DataValue, 1.87, 0.0001000005
DataValue, 1.86, 0.0001000005
DataValue, 1.85, 0.0001000005
DataValue, 1.84, 0.0001000004
DataValue, 1.83, 0.0001000005
DataValue, 1.82, 0.0001000004
DataValue, 1.81, 0.0001000005
DataValue, 1.8, 0.0001000004
DataValue, 1.79, 0.0001000004
DataValue, 1.78, 0.0001000006
DataValue, 1.77, 0.0001000005
DataValue, 1.76, 0.0001000004
DataValue, 1.75, 0.0001000005
DataValue, 1.74, 0.0001000005
DataValue, 1.73, 0.0001000005
DataValue, 1.72, 0.0001000006
DataValue, 1.71, 0.0001000005
DataValue, 1.7, 0.0001000004
DataValue, 1.69, 0.0001000005
DataValue, 1.68, 0.0001000004
DataValue, 1.67, 0.0001000005
DataValue, 1.6600000000000001, 0.0001000005
DataValue, 1.6500000000000001, 0.0001000004
DataValue, 1.6400000000000001, 0.0001000004
DataValue, 1.6300000000000001, 0.0001000004
DataValue, 1.62, 0.0001000005
DataValue, 1.61, 0.0001000004
DataValue, 1.6, 0.0001000005
DataValue, 1.59, 0.0001000005
DataValue, 1.58, 0.0001000005
DataValue, 1.57, 0.0001000004
DataValue, 1.56, 0.0001000005
DataValue, 1.55, 0.0001000005
DataValue, 1.54, 0.0001000005
DataValue, 1.53, 0.0001000006
DataValue, 1.52, 0.0001000005
DataValue, 1.51, 0.0001000005
DataValue, 1.5, 0.0001000005
DataValue, 1.49, 0.0001000005
DataValue, 1.48, 0.0001000005
DataValue, 1.47, 0.0001000004
DataValue, 1.46, 0.0001000005
DataValue, 1.45, 0.0001000005
DataValue, 1.44, 0.0001000005
DataValue, 1.43, 0.0001000004
DataValue, 1.42, 0.0001000005
DataValue, 1.41, 0.0001000005
DataValue, 1.4000000000000001, 0.0001000006
DataValue, 1.3900000000000001, 0.0001000005
DataValue, 1.3800000000000001, 0.0001000005
DataValue, 1.37, 0.0001000006
DataValue, 1.36, 0.0001000006
DataValue, 1.35, 0.0001000005
DataValue, 1.34, 0.0001000005
DataValue, 1.33, 0.0001000006
DataValue, 1.32, 0.0001000005
DataValue, 1.31, 0.0001000004
DataValue, 1.3, 0.0001000004
DataValue, 1.29, 0.0001000004
DataValue, 1.28, 0.0001000005
DataValue, 1.27, 0.0001000006
DataValue, 1.26, 0.0001000005
DataValue, 1.25, 0.0001000005
DataValue, 1.24, 0.0001000005
DataValue, 1.23, 0.0001000005
DataValue, 1.22, 0.0001000005
DataValue, 1.21, 0.0001000006
DataValue, 1.2, 0.0001000004
DataValue, 1.19, 0.0001000004
DataValue, 1.18, 0.0001000005
DataValue, 1.17, 0.0001000004
DataValue, 1.16, 0.0001000004
DataValue, 1.1500000000000001, 0.0001000004
DataValue, 1.1400000000000001, 0.0001000004
DataValue, 1.1300000000000001, 0.0001000005
DataValue, 1.12, 0.0001000005
DataValue, 1.11, 0.0001000005
DataValue, 1.1, 0.0001000005
DataValue, 1.09, 0.0001000005
DataValue, 1.08, 0.0001000005
DataValue, 1.07, 0.0001000005
DataValue, 1.06, 0.0001000006
DataValue, 1.05, 0.0001000005
DataValue, 1.04, 0.0001000005
DataValue, 1.03, 0.0001000004
DataValue, 1.02, 0.0001000004
DataValue, 1.01, 0.0001000004
DataValue, 1, 0.0001000004
DataValue, 0.99, 0.0001000004
DataValue, 0.98, 0.0001000003
DataValue, 0.97, 0.0001000004
DataValue, 0.96, 0.0001000005
DataValue, 0.95000000000000007, 0.0001000005
DataValue, 0.94000000000000006, 0.0001000003
DataValue, 0.93, 0.0001000004
DataValue, 0.92, 0.0001000004
DataValue, 0.91, 0.0001000004
DataValue, 0.9, 0.0001000004
DataValue, 0.89, 0.0001000004
DataValue, 0.88, 0.0001000003
DataValue, 0.87, 0.0001000004
DataValue, 0.86, 0.0001000004
DataValue, 0.85, 0.0001000004
DataValue, 0.84, 0.0001000004
DataValue, 0.83000000000000007, 0.0001000003
DataValue, 0.82000000000000006, 0.0001000004
DataValue, 0.81, 0.0001000005
DataValue, 0.8, 0.0001000004
DataValue, 0.79, 0.0001000004
DataValue, 0.78, 0.0001000004
DataValue, 0.77, 0.0001000005
DataValue, 0.76, 0.0001000005
DataValue, 0.75, 0.0001000005
DataValue, 0.74, 0.0001000004
DataValue, 0.73, 0.0001000004
DataValue, 0.72, 0.0001000004
DataValue, 0.71, 0.0001000004
DataValue, 0.70000000000000007, 0.0001000005
DataValue, 0.69000000000000006, 0.0001000005
DataValue, 0.68, 0.0001000004
DataValue, 0.67, 0.0001000004
DataValue, 0.66, 0.0001000005
DataValue, 0.65, 0.0001000005
DataValue, 0.64, 0.0001000004
DataValue, 0.63, 0.0001000005
DataValue, 0.62, 0.0001000005
DataValue, 0.61, 0.0001000004
DataValue, 0.6, 0.0001000005
DataValue, 0.59, 0.0001000003
DataValue, 0.58, 0.0001000004
DataValue, 0.57000000000000006, 0.0001000004
DataValue, 0.56, 0.0001000004
DataValue, 0.55, 0.0001000004
DataValue, 0.54, 0.0001000004
DataValue, 0.53, 0.0001000005
DataValue, 0.52, 0.0001000003
DataValue, 0.51, 0.0001000005
DataValue, 0.5, 0.0001000004
DataValue, 0.49, 0.0001000003
DataValue, 0.48, 0.0001000003
DataValue, 0.47000000000000003, 0.0001000004
DataValue, 0.46, 0.0001000004
DataValue, 0.45, 0.0001000005
DataValue, 0.44, 9.97555E-05
DataValue, 0.43, 9.42221E-05
DataValue, 0.42, 8.96038E-05
DataValue, 0.41000000000000003, 8.47644E-05
DataValue, 0.4, 8.08624E-05
DataValue, 0.39, 7.6004E-05
DataValue, 0.38, 7.2237E-05
DataValue, 0.37, 6.74409E-05
DataValue, 0.36, 6.33485E-05
DataValue, 0.35000000000000003, 5.92552E-05
DataValue, 0.34, 5.57721E-05
DataValue, 0.33, 5.1780900000000004E-05
DataValue, 0.32, 4.8514700000000005E-05
DataValue, 0.31, 4.53351E-05
DataValue, 0.3, 4.2165E-05
DataValue, 0.29, 3.92549E-05
DataValue, 0.28, 3.64044E-05
DataValue, 0.27, 3.38085E-05
DataValue, 0.26, 3.12411E-05
DataValue, 0.25, 2.88088E-05
DataValue, 0.24, 2.71056E-05
DataValue, 0.23, 2.45644E-05
DataValue, 0.22, 2.2611700000000002E-05
