
SetupTitle, SET+RESET
ApplicationTest, DoubleSweep_IV, Public
TestParameter, Name, Port1, Port2, Vstart1, Vstop1, Vstep1, Compliance1, Vstart2, Vstop2, Vstep2, Compliance2, IntegTime, HoldTime, DelayTime, MinRange
TestParameter, Value, SMU1:MP	MPSMU, SMU2:MP	MPSMU, 0, 2, 0.01, 0.0001, 0, -1.4, 0.01, 0.1, MEDIUM, 0, 0, 1nA
DutParameter, Name, Temp, CCMax
DutParameter, Value, 25, 0.1
MetaData, TestRecord.EntryPoint, true
MetaData, TestRecord.RecordTime, 10/27/2025 16:13:55
MetaData, TestRecord.TestTarget, 
MetaData, TestRecord.IterationIndex, 15
MetaData, TestRecord.Preservation, true
MetaData, TestRecord.Flag, 
MetaData, TestRecord.Remarks, 
MetaData, TestRecord.LinkKey, 8357d7dd-e72a-4f5b-afbd-1f78304c40fb
MetaData, TestRecord.Parameters, 
Dimension1, 681, 681
Dimension2, 1, 1
DataName, V1, I1
DataValue, 0, 1.517E-12
DataValue, 0.01, 2.09892E-09
DataValue, 0.02, 4.36053E-09
DataValue, 0.030000000000000002, 6.8037E-09
DataValue, 0.04, 9.43253E-09
DataValue, 0.05, 1.2435699999999998E-08
DataValue, 0.060000000000000005, 1.59334E-08
DataValue, 0.07, 1.9897999999999997E-08
DataValue, 0.08, 2.4554199999999997E-08
DataValue, 0.090000000000000011, 2.98539E-08
DataValue, 0.1, 3.6216799999999995E-08
DataValue, 0.11, 4.3323099999999996E-08
DataValue, 0.12000000000000001, 5.1386499999999995E-08
DataValue, 0.13, 5.9810699999999989E-08
DataValue, 0.14, 7.01599E-08
DataValue, 0.15, 8.07702E-08
DataValue, 0.16, 9.3456499999999987E-08
DataValue, 0.17, 1.098696E-07
DataValue, 0.18000000000000002, 1.26879E-07
DataValue, 0.19, 1.47972E-07
DataValue, 0.2, 1.71367E-07
DataValue, 0.21000000000000002, 1.97361E-07
DataValue, 0.22, 2.24356E-07
DataValue, 0.23, 2.53657E-07
DataValue, 0.24000000000000002, 2.81879E-07
DataValue, 0.25, 3.22783E-07
DataValue, 0.26, 3.63265E-07
DataValue, 0.27, 4.11532E-07
DataValue, 0.28, 4.4625799999999997E-07
DataValue, 0.29000000000000004, 4.9846E-07
DataValue, 0.3, 5.57408E-07
DataValue, 0.31, 6.0223899999999994E-07
DataValue, 0.32, 6.33225E-07
DataValue, 0.33, 7.05824E-07
DataValue, 0.34, 7.78007E-07
DataValue, 0.35000000000000003, 8.4959E-07
DataValue, 0.36000000000000004, 9.29523E-07
DataValue, 0.37, 1.006E-06
DataValue, 0.38, 1.1242E-06
DataValue, 0.39, 1.19461E-06
DataValue, 0.4, 1.2809500000000002E-06
DataValue, 0.41000000000000003, 1.3932400000000001E-06
DataValue, 0.42000000000000004, 1.4083000000000001E-06
DataValue, 0.43, 1.5024700000000002E-06
DataValue, 0.44, 1.6067600000000002E-06
DataValue, 0.45, 1.7144300000000002E-06
DataValue, 0.46, 1.8166800000000002E-06
DataValue, 0.47000000000000003, 1.93689E-06
DataValue, 0.48000000000000004, 2.0812400000000003E-06
DataValue, 0.49000000000000005, 2.23822E-06
DataValue, 0.5, 2.4022900000000004E-06
DataValue, 0.51, 2.58822E-06
DataValue, 0.52, 2.7110400000000002E-06
DataValue, 0.53, 2.89225E-06
DataValue, 0.54, 3.0998200000000005E-06
DataValue, 0.55, 3.2933800000000004E-06
DataValue, 0.56, 3.4447700000000005E-06
DataValue, 0.57000000000000006, 3.6895000000000004E-06
DataValue, 0.58000000000000007, 3.6981200000000003E-06
DataValue, 0.59000000000000008, 3.85778E-06
DataValue, 0.6, 3.99864E-06
DataValue, 0.61, 4.1469300000000005E-06
DataValue, 0.62, 4.3717000000000009E-06
DataValue, 0.63, 4.59825E-06
DataValue, 0.64, 4.7857500000000007E-06
DataValue, 0.65, 4.85458E-06
DataValue, 0.66, 4.9853E-06
DataValue, 0.67, 5.32061E-06
DataValue, 0.68, 5.33784E-06
DataValue, 0.69000000000000006, 5.2825400000000009E-06
DataValue, 0.70000000000000007, 5.52634E-06
DataValue, 0.71000000000000008, 5.8257800000000005E-06
DataValue, 0.72000000000000008, 5.7972300000000006E-06
DataValue, 0.73, 6.2766100000000009E-06
DataValue, 0.74, 6.287690000000001E-06
DataValue, 0.75, 6.4330800000000006E-06
DataValue, 0.76, 6.9251000000000008E-06
DataValue, 0.77, 7.2349600000000008E-06
DataValue, 0.78, 7.2451600000000011E-06
DataValue, 0.79, 7.5705500000000007E-06
DataValue, 0.8, 7.4839400000000007E-06
DataValue, 0.81, 8.15994E-06
DataValue, 0.82000000000000006, 7.8835200000000014E-06
DataValue, 0.83000000000000007, 7.90939E-06
DataValue, 0.84000000000000008, 7.78674E-06
DataValue, 0.85000000000000009, 7.9744500000000012E-06
DataValue, 0.86, 8.3927600000000009E-06
DataValue, 0.87, 8.65088E-06
DataValue, 0.88, 9.0669300000000016E-06
DataValue, 0.89, 9.20843E-06
DataValue, 0.9, 9.5318300000000012E-06
DataValue, 0.91, 9.7774900000000018E-06
DataValue, 0.92, 9.5670200000000014E-06
DataValue, 0.93, 9.6273700000000016E-06
DataValue, 0.94000000000000006, 9.9392900000000009E-06
DataValue, 0.95000000000000007, 9.6814700000000017E-06
DataValue, 0.96000000000000008, 9.6126600000000009E-06
DataValue, 0.97000000000000008, 9.89792E-06
DataValue, 0.98000000000000009, 9.88475E-06
DataValue, 0.9900000000000001, 1.0355260000000001E-05
DataValue, 1, 1.1183830000000002E-05
DataValue, 1.01, 1.0863800000000001E-05
DataValue, 1.02, 1.12855E-05
DataValue, 1.03, 1.1287300000000001E-05
DataValue, 1.04, 1.1587800000000001E-05
DataValue, 1.05, 1.1712200000000001E-05
DataValue, 1.06, 1.17667E-05
DataValue, 1.07, 1.1950200000000001E-05
DataValue, 1.08, 1.2430600000000001E-05
DataValue, 1.09, 1.2966000000000001E-05
DataValue, 1.1, 1.36162E-05
DataValue, 1.11, 1.45626E-05
DataValue, 1.12, 1.68389E-05
DataValue, 1.1300000000000001, 9.999910000000001E-05
DataValue, 1.1400000000000001, 9.99992E-05
DataValue, 1.1500000000000001, 9.999910000000001E-05
DataValue, 1.1600000000000001, 9.999910000000001E-05
DataValue, 1.1700000000000002, 9.999910000000001E-05
DataValue, 1.1800000000000002, 9.999910000000001E-05
DataValue, 1.19, 9.999910000000001E-05
DataValue, 1.2, 9.999910000000001E-05
DataValue, 1.21, 9.999910000000001E-05
DataValue, 1.22, 9.99992E-05
DataValue, 1.23, 9.99992E-05
DataValue, 1.24, 9.99992E-05
DataValue, 1.25, 9.99992E-05
DataValue, 1.26, 9.99992E-05
DataValue, 1.27, 9.999910000000001E-05
DataValue, 1.28, 9.99992E-05
DataValue, 1.29, 9.99992E-05
DataValue, 1.3, 9.99992E-05
DataValue, 1.31, 9.99992E-05
DataValue, 1.32, 9.999930000000001E-05
DataValue, 1.33, 9.99992E-05
DataValue, 1.34, 9.999930000000001E-05
DataValue, 1.35, 9.999930000000001E-05
DataValue, 1.36, 9.999910000000001E-05
DataValue, 1.37, 9.99992E-05
DataValue, 1.3800000000000001, 9.999910000000001E-05
DataValue, 1.3900000000000001, 9.999910000000001E-05
DataValue, 1.4000000000000001, 9.99992E-05
DataValue, 1.4100000000000001, 9.99992E-05
DataValue, 1.4200000000000002, 9.999910000000001E-05
DataValue, 1.4300000000000002, 9.99992E-05
DataValue, 1.4400000000000002, 9.99992E-05
DataValue, 1.4500000000000002, 9.99992E-05
DataValue, 1.46, 9.99992E-05
DataValue, 1.47, 9.99992E-05
DataValue, 1.48, 9.999910000000001E-05
DataValue, 1.49, 9.99992E-05
DataValue, 1.5, 9.99992E-05
DataValue, 1.51, 9.99992E-05
DataValue, 1.52, 9.99992E-05
DataValue, 1.53, 9.999930000000001E-05
DataValue, 1.54, 9.999910000000001E-05
DataValue, 1.55, 9.999910000000001E-05
DataValue, 1.56, 9.99992E-05
DataValue, 1.57, 9.99992E-05
DataValue, 1.58, 9.99992E-05
DataValue, 1.59, 9.999910000000001E-05
DataValue, 1.6, 9.999910000000001E-05
DataValue, 1.61, 9.999910000000001E-05
DataValue, 1.62, 9.999910000000001E-05
DataValue, 1.6300000000000001, 9.99992E-05
DataValue, 1.6400000000000001, 9.999910000000001E-05
DataValue, 1.6500000000000001, 9.999910000000001E-05
DataValue, 1.6600000000000001, 9.999910000000001E-05
DataValue, 1.6700000000000002, 9.999910000000001E-05
DataValue, 1.6800000000000002, 9.99992E-05
DataValue, 1.6900000000000002, 9.999910000000001E-05
DataValue, 1.7000000000000002, 9.99992E-05
DataValue, 1.7100000000000002, 9.999910000000001E-05
DataValue, 1.72, 9.99992E-05
DataValue, 1.73, 9.99992E-05
DataValue, 1.74, 9.99992E-05
DataValue, 1.75, 9.99992E-05
DataValue, 1.76, 9.99992E-05
DataValue, 1.77, 9.999910000000001E-05
DataValue, 1.78, 9.99992E-05
DataValue, 1.79, 9.99992E-05
DataValue, 1.8, 9.99992E-05
DataValue, 1.81, 9.99992E-05
DataValue, 1.82, 9.99992E-05
DataValue, 1.83, 9.99992E-05
DataValue, 1.84, 9.99992E-05
DataValue, 1.85, 9.99992E-05
DataValue, 1.86, 9.99992E-05
DataValue, 1.87, 9.99992E-05
DataValue, 1.8800000000000001, 9.99992E-05
DataValue, 1.8900000000000001, 9.9999E-05
DataValue, 1.9000000000000001, 9.99992E-05
DataValue, 1.9100000000000001, 9.99992E-05
DataValue, 1.9200000000000002, 9.99992E-05
DataValue, 1.9300000000000002, 9.99992E-05
DataValue, 1.9400000000000002, 9.999910000000001E-05
DataValue, 1.9500000000000002, 9.999910000000001E-05
DataValue, 1.9600000000000002, 9.999910000000001E-05
DataValue, 1.9700000000000002, 9.999910000000001E-05
DataValue, 1.9800000000000002, 9.99992E-05
DataValue, 1.99, 9.99992E-05
DataValue, 2, 9.999910000000001E-05
DataValue, 1.99, 9.999910000000001E-05
DataValue, 1.9800000000000002, 9.999910000000001E-05
DataValue, 1.9700000000000002, 9.99992E-05
DataValue, 1.9600000000000002, 9.999910000000001E-05
DataValue, 1.9500000000000002, 9.99992E-05
DataValue, 1.9400000000000002, 9.999910000000001E-05
DataValue, 1.9300000000000002, 9.99992E-05
DataValue, 1.9200000000000002, 9.999910000000001E-05
DataValue, 1.9100000000000001, 9.999910000000001E-05
DataValue, 1.9000000000000001, 9.99992E-05
DataValue, 1.8900000000000001, 9.99992E-05
DataValue, 1.8800000000000001, 9.99992E-05
DataValue, 1.87, 9.999910000000001E-05
DataValue, 1.86, 9.99992E-05
DataValue, 1.85, 9.999910000000001E-05
DataValue, 1.84, 9.99992E-05
DataValue, 1.83, 9.999910000000001E-05
DataValue, 1.82, 9.999910000000001E-05
DataValue, 1.81, 9.999910000000001E-05
DataValue, 1.8, 9.99992E-05
DataValue, 1.79, 9.999910000000001E-05
DataValue, 1.78, 9.999910000000001E-05
DataValue, 1.77, 9.999910000000001E-05
DataValue, 1.76, 9.9999E-05
DataValue, 1.75, 9.999910000000001E-05
DataValue, 1.74, 9.9999E-05
DataValue, 1.73, 9.999910000000001E-05
DataValue, 1.72, 9.999910000000001E-05
DataValue, 1.7100000000000002, 9.999910000000001E-05
DataValue, 1.7000000000000002, 9.999910000000001E-05
DataValue, 1.6900000000000002, 9.999910000000001E-05
DataValue, 1.6800000000000002, 9.999910000000001E-05
DataValue, 1.6700000000000002, 9.99992E-05
DataValue, 1.6600000000000001, 9.99992E-05
DataValue, 1.6500000000000001, 9.99992E-05
DataValue, 1.6400000000000001, 9.99992E-05
DataValue, 1.6300000000000001, 9.99992E-05
DataValue, 1.62, 9.99992E-05
DataValue, 1.61, 9.99992E-05
DataValue, 1.6, 9.99992E-05
DataValue, 1.59, 9.99992E-05
DataValue, 1.58, 9.99992E-05
DataValue, 1.57, 9.999910000000001E-05
DataValue, 1.56, 9.99992E-05
DataValue, 1.55, 9.99992E-05
DataValue, 1.54, 9.99992E-05
DataValue, 1.53, 9.99992E-05
DataValue, 1.52, 9.99992E-05
DataValue, 1.51, 9.99992E-05
DataValue, 1.5, 9.99992E-05
DataValue, 1.49, 9.99992E-05
DataValue, 1.48, 9.99992E-05
DataValue, 1.47, 9.999910000000001E-05
DataValue, 1.46, 9.99992E-05
DataValue, 1.4500000000000002, 9.99992E-05
DataValue, 1.4400000000000002, 9.99992E-05
DataValue, 1.4300000000000002, 9.9999E-05
DataValue, 1.4200000000000002, 9.99992E-05
DataValue, 1.4100000000000001, 9.99992E-05
DataValue, 1.4000000000000001, 9.999910000000001E-05
DataValue, 1.3900000000000001, 9.999910000000001E-05
DataValue, 1.3800000000000001, 9.99992E-05
DataValue, 1.37, 9.99992E-05
DataValue, 1.36, 9.999910000000001E-05
DataValue, 1.35, 9.99992E-05
DataValue, 1.34, 9.99992E-05
DataValue, 1.33, 9.999930000000001E-05
DataValue, 1.32, 9.99992E-05
DataValue, 1.31, 9.99992E-05
DataValue, 1.3, 9.99992E-05
DataValue, 1.29, 9.99992E-05
DataValue, 1.28, 9.99992E-05
DataValue, 1.27, 9.999910000000001E-05
DataValue, 1.26, 9.99992E-05
DataValue, 1.25, 9.999910000000001E-05
DataValue, 1.24, 9.99992E-05
DataValue, 1.23, 9.99992E-05
DataValue, 1.22, 9.99992E-05
DataValue, 1.21, 9.99992E-05
DataValue, 1.2, 9.99992E-05
DataValue, 1.19, 9.999910000000001E-05
DataValue, 1.1800000000000002, 9.99992E-05
DataValue, 1.1700000000000002, 9.99992E-05
DataValue, 1.1600000000000001, 9.999910000000001E-05
DataValue, 1.1500000000000001, 9.999910000000001E-05
DataValue, 1.1400000000000001, 9.99992E-05
DataValue, 1.1300000000000001, 9.99992E-05
DataValue, 1.12, 9.99992E-05
DataValue, 1.11, 9.999910000000001E-05
DataValue, 1.1, 9.99992E-05
DataValue, 1.09, 9.99992E-05
DataValue, 1.08, 9.99992E-05
DataValue, 1.07, 9.99992E-05
DataValue, 1.06, 9.9999E-05
DataValue, 1.05, 9.99992E-05
DataValue, 1.04, 9.999910000000001E-05
DataValue, 1.03, 9.99992E-05
DataValue, 1.02, 9.99992E-05
DataValue, 1.01, 9.999910000000001E-05
DataValue, 1, 9.999910000000001E-05
DataValue, 0.9900000000000001, 9.99992E-05
DataValue, 0.98000000000000009, 9.999910000000001E-05
DataValue, 0.97000000000000008, 9.999910000000001E-05
DataValue, 0.96000000000000008, 9.99992E-05
DataValue, 0.95000000000000007, 9.99992E-05
DataValue, 0.94000000000000006, 9.99992E-05
DataValue, 0.93, 9.99992E-05
DataValue, 0.92, 9.99992E-05
DataValue, 0.91, 9.99992E-05
DataValue, 0.9, 9.99992E-05
DataValue, 0.89, 9.999930000000001E-05
DataValue, 0.88, 9.99992E-05
DataValue, 0.87, 9.99992E-05
DataValue, 0.86, 9.999910000000001E-05
DataValue, 0.85000000000000009, 9.99992E-05
DataValue, 0.84000000000000008, 9.99992E-05
DataValue, 0.83000000000000007, 9.99992E-05
DataValue, 0.82000000000000006, 9.999930000000001E-05
DataValue, 0.81, 9.99992E-05
DataValue, 0.8, 9.99992E-05
DataValue, 0.79, 9.99992E-05
DataValue, 0.78, 9.999910000000001E-05
DataValue, 0.77, 9.99992E-05
DataValue, 0.76, 9.99992E-05
DataValue, 0.75, 9.999910000000001E-05
DataValue, 0.74, 9.99992E-05
DataValue, 0.73, 9.999910000000001E-05
DataValue, 0.72000000000000008, 9.99992E-05
DataValue, 0.71000000000000008, 9.99992E-05
DataValue, 0.70000000000000007, 9.99992E-05
DataValue, 0.69000000000000006, 9.99992E-05
DataValue, 0.68, 9.99992E-05
DataValue, 0.67, 9.999930000000001E-05
DataValue, 0.66, 9.99992E-05
DataValue, 0.65, 9.99992E-05
DataValue, 0.64, 9.999930000000001E-05
DataValue, 0.63, 9.99992E-05
DataValue, 0.62, 9.99992E-05
DataValue, 0.61, 9.999910000000001E-05
DataValue, 0.6, 9.999910000000001E-05
DataValue, 0.59000000000000008, 9.99992E-05
DataValue, 0.58000000000000007, 9.99992E-05
DataValue, 0.57000000000000006, 9.999910000000001E-05
DataValue, 0.56, 9.9999E-05
DataValue, 0.55, 9.99992E-05
DataValue, 0.54, 9.999910000000001E-05
DataValue, 0.53, 9.99992E-05
DataValue, 0.52, 9.99992E-05
DataValue, 0.51, 9.999910000000001E-05
DataValue, 0.5, 9.999910000000001E-05
DataValue, 0.49000000000000005, 9.99992E-05
DataValue, 0.48000000000000004, 9.99992E-05
DataValue, 0.47000000000000003, 9.99992E-05
DataValue, 0.46, 9.99992E-05
DataValue, 0.45, 9.99992E-05
DataValue, 0.44, 9.9999E-05
DataValue, 0.43, 9.999910000000001E-05
DataValue, 0.42000000000000004, 9.999910000000001E-05
DataValue, 0.41000000000000003, 9.99992E-05
DataValue, 0.4, 9.99992E-05
DataValue, 0.39, 9.99992E-05
DataValue, 0.38, 9.999910000000001E-05
DataValue, 0.37, 9.99992E-05
DataValue, 0.36000000000000004, 9.999910000000001E-05
DataValue, 0.35000000000000003, 9.99992E-05
DataValue, 0.34, 9.99992E-05
DataValue, 0.33, 9.79575E-05
DataValue, 0.32, 9.204160000000001E-05
DataValue, 0.31, 8.6289900000000009E-05
DataValue, 0.3, 8.067E-05
DataValue, 0.29000000000000004, 7.54122E-05
DataValue, 0.28, 7.0040500000000008E-05
DataValue, 0.27, 6.52341E-05
DataValue, 0.26, 6.04842E-05
DataValue, 0.25, 5.5767500000000004E-05
DataValue, 0.24000000000000002, 5.13815E-05
DataValue, 0.23, 4.72703E-05
DataValue, 0.22, 4.34294E-05
DataValue, 0.21000000000000002, 3.9814700000000004E-05
DataValue, 0.2, 3.64547E-05
DataValue, 0.19, 3.3238700000000004E-05
DataValue, 0.18000000000000002, 3.02889E-05
DataValue, 0.17, 2.7530100000000003E-05
DataValue, 0.16, 2.50033E-05
DataValue, 0.15, 2.2633300000000002E-05
DataValue, 0.14, 2.04094E-05
DataValue, 0.13, 1.84065E-05
DataValue, 0.12000000000000001, 1.65121E-05
DataValue, 0.11, 1.4743000000000001E-05
DataValue, 0.1, 1.30638E-05
DataValue, 0.090000000000000011, 1.15217E-05
DataValue, 0.08, 1.0032600000000001E-05
DataValue, 0.07, 8.61286E-06
DataValue, 0.060000000000000005, 7.2661500000000007E-06
DataValue, 0.05, 5.9682500000000008E-06
DataValue, 0.04, 4.72714E-06
DataValue, 0.030000000000000002, 3.51153E-06
DataValue, 0.02, 2.32793E-06
DataValue, 0.01, 1.16226E-06
DataValue, 0, 3.97319E-10
DataValue, -0.01, 1.1550000000000002E-06
DataValue, -0.02, 2.32658E-06
DataValue, -0.030000000000000002, 3.5042300000000002E-06
DataValue, -0.04, 4.7114500000000004E-06
DataValue, -0.05, 5.9415400000000009E-06
DataValue, -0.060000000000000005, 7.2264200000000005E-06
DataValue, -0.07, 8.54767E-06
DataValue, -0.08, 9.945710000000001E-06
DataValue, -0.090000000000000011, 1.1406E-05
DataValue, -0.1, 1.29626E-05
DataValue, -0.11, 1.46E-05
DataValue, -0.12000000000000001, 1.63264E-05
DataValue, -0.13, 1.8190800000000002E-05
DataValue, -0.14, 2.01328E-05
DataValue, -0.15, 2.23107E-05
DataValue, -0.16, 2.4595600000000002E-05
DataValue, -0.17, 2.7055600000000002E-05
DataValue, -0.18000000000000002, 2.9665E-05
DataValue, -0.19, 3.2543100000000004E-05
DataValue, -0.2, 3.5522400000000004E-05
DataValue, -0.21000000000000002, 3.87346E-05
DataValue, -0.22, 4.2233E-05
DataValue, -0.23, 4.57594E-05
DataValue, -0.24000000000000002, 4.97927E-05
DataValue, -0.25, 5.38003E-05
DataValue, -0.26, 5.81422E-05
DataValue, -0.27, 6.25302E-05
DataValue, -0.28, 6.71131E-05
DataValue, -0.29000000000000004, 7.19254E-05
DataValue, -0.3, 7.68909E-05
DataValue, -0.31, 8.178760000000001E-05
DataValue, -0.32, 8.6945100000000009E-05
DataValue, -0.33, 9.2121600000000009E-05
DataValue, -0.34, 9.7740000000000009E-05
DataValue, -0.35000000000000003, 0.00010279560000000001
DataValue, -0.36000000000000004, 0.0001082478
DataValue, -0.37, 0.000113262
DataValue, -0.38, 0.00011854400000000001
DataValue, -0.39, 0.000123824
DataValue, -0.4, 0.000129645
DataValue, -0.41000000000000003, 0.000134165
DataValue, -0.42000000000000004, 0.00013931500000000002
DataValue, -0.43, 0.00014434000000000002
DataValue, -0.44, 0.00014926500000000002
DataValue, -0.45, 0.000152997
DataValue, -0.46, 0.00015690500000000002
DataValue, -0.47000000000000003, 0.000160883
DataValue, -0.48000000000000004, 0.000162466
DataValue, -0.49000000000000005, 0.00016201100000000002
DataValue, -0.5, 0.00016214700000000002
DataValue, -0.51, 0.000165147
DataValue, -0.52, 0.000166665
DataValue, -0.53, 0.000164351
DataValue, -0.54, 0.000164765
DataValue, -0.55, 0.00016055800000000002
DataValue, -0.56, 0.000161327
DataValue, -0.57000000000000006, 0.000164169
DataValue, -0.58000000000000007, 0.00016408700000000002
DataValue, -0.59000000000000008, 0.000162902
DataValue, -0.6, 0.00016342600000000002
DataValue, -0.61, 0.00016795700000000002
DataValue, -0.62, 0.00016650900000000002
DataValue, -0.63, 0.00016806200000000002
DataValue, -0.64, 0.000167185
DataValue, -0.65, 0.000165488
DataValue, -0.66, 0.000166966
DataValue, -0.67, 0.000169786
DataValue, -0.68, 0.00016820000000000002
DataValue, -0.69000000000000006, 0.000169347
DataValue, -0.70000000000000007, 0.00016932400000000002
DataValue, -0.71000000000000008, 0.000169234
DataValue, -0.72000000000000008, 0.00016730100000000002
DataValue, -0.73, 0.000168419
DataValue, -0.74, 0.000168039
DataValue, -0.75, 0.00016714100000000002
DataValue, -0.76, 0.000165816
DataValue, -0.77, 0.00016442100000000002
DataValue, -0.78, 0.00016800500000000002
DataValue, -0.79, 0.000166271
DataValue, -0.8, 0.00016347
DataValue, -0.81, 0.000160848
DataValue, -0.82000000000000006, 0.000166195
DataValue, -0.83000000000000007, 0.00016612900000000002
DataValue, -0.84000000000000008, 0.00016407000000000002
DataValue, -0.85000000000000009, 0.00016126200000000002
DataValue, -0.86, 0.000159981
DataValue, -0.87, 0.000160125
DataValue, -0.88, 0.00015919500000000002
DataValue, -0.89, 0.00015785200000000002
