
SetupTitle, SET+RESET
ApplicationTest, DoubleSweep_IV, Public
TestParameter, Name, Port1, Port2, Vstart1, Vstop1, Vstep1, Compliance1, Vstart2, Vstop2, Vstep2, Compliance2, IntegTime, HoldTime, DelayTime, MinRange
TestParameter, Value, SMU1:MP	MPSMU, SMU2:MP	MPSMU, 0, 3, 0.01, 0.0001, 0, -1.4, 0.01, 0.1, MEDIUM, 0, 0, 1nA
DutParameter, Name, Temp, CCMax
DutParameter, Value, 25, 0.1
MetaData, TestRecord.EntryPoint, true
MetaData, TestRecord.RecordTime, 10/06/2025 16:01:08
MetaData, TestRecord.TestTarget, 
MetaData, TestRecord.IterationIndex, 20
MetaData, TestRecord.Preservation, true
MetaData, TestRecord.Flag, 
MetaData, TestRecord.Remarks, 
MetaData, TestRecord.LinkKey, f735f854-6dee-4c11-ab2e-2d7df003c0f9
MetaData, TestRecord.Parameters, 
Dimension1, 881, 881
Dimension2, 1, 1
DataName, V1, I1
DataValue, 0, 8.9005000000000007E-11
DataValue, 0.01, 1.8186299999999998E-08
DataValue, 0.02, 3.7718899999999996E-08
DataValue, 0.03, 5.91926E-08
DataValue, 0.04, 8.2041099999999992E-08
DataValue, 0.05, 1.0636379999999999E-07
DataValue, 0.06, 1.27267E-07
DataValue, 0.07, 1.56175E-07
DataValue, 0.08, 1.81682E-07
DataValue, 0.09, 2.0942499999999998E-07
DataValue, 0.1, 2.42832E-07
DataValue, 0.11, 2.76942E-07
DataValue, 0.12, 3.16082E-07
DataValue, 0.13, 3.5845899999999997E-07
DataValue, 0.14, 4.0089E-07
DataValue, 0.15, 4.37507E-07
DataValue, 0.16, 4.83887E-07
DataValue, 0.17, 5.33026E-07
DataValue, 0.18, 5.94746E-07
DataValue, 0.19, 6.5954799999999994E-07
DataValue, 0.2, 7.32129E-07
DataValue, 0.21, 7.9838E-07
DataValue, 0.22, 8.83635E-07
DataValue, 0.23, 9.57624E-07
DataValue, 0.24, 1.036583E-06
DataValue, 0.25, 1.1392500000000002E-06
DataValue, 0.26, 1.2321500000000001E-06
DataValue, 0.27, 1.3390600000000002E-06
DataValue, 0.28, 1.4540100000000003E-06
DataValue, 0.29, 1.5487800000000002E-06
DataValue, 0.3, 1.7100300000000001E-06
DataValue, 0.31, 1.8482000000000002E-06
DataValue, 0.32, 1.9712900000000002E-06
DataValue, 0.33, 2.15495E-06
DataValue, 0.34, 2.4308100000000004E-06
DataValue, 0.35000000000000003, 2.6733200000000004E-06
DataValue, 0.36, 2.7789500000000003E-06
DataValue, 0.37, 2.9029700000000004E-06
DataValue, 0.38, 3.0704900000000002E-06
DataValue, 0.39, 3.3437800000000004E-06
DataValue, 0.4, 3.84216E-06
DataValue, 0.41000000000000003, 4.10485E-06
DataValue, 0.42, 4.24781E-06
DataValue, 0.43, 4.52652E-06
DataValue, 0.44, 4.60142E-06
DataValue, 0.45, 4.9848200000000007E-06
DataValue, 0.46, 5.10047E-06
DataValue, 0.47000000000000003, 5.33554E-06
DataValue, 0.48, 5.4408900000000009E-06
DataValue, 0.49, 5.7385900000000006E-06
DataValue, 0.5, 6.0861600000000009E-06
DataValue, 0.51, 6.4867100000000008E-06
DataValue, 0.52, 6.8384000000000005E-06
DataValue, 0.53, 6.3197000000000007E-06
DataValue, 0.54, 6.65186E-06
DataValue, 0.55, 7.04948E-06
DataValue, 0.56, 7.1920000000000008E-06
DataValue, 0.57000000000000006, 7.61244E-06
DataValue, 0.58, 8.019030000000001E-06
DataValue, 0.59, 8.1419300000000012E-06
DataValue, 0.6, 8.3776000000000009E-06
DataValue, 0.61, 8.56157E-06
DataValue, 0.62, 8.8638000000000014E-06
DataValue, 0.63, 9.18279E-06
DataValue, 0.64, 9.1546E-06
DataValue, 0.65, 9.15581E-06
DataValue, 0.66, 9.6186300000000018E-06
DataValue, 0.67, 1.0213160000000001E-05
DataValue, 0.68, 1.0865090000000001E-05
DataValue, 0.69000000000000006, 1.19359E-05
DataValue, 0.70000000000000007, 1.2644000000000001E-05
DataValue, 0.71, 1.30621E-05
DataValue, 0.72, 1.58944E-05
DataValue, 0.73, 1.48739E-05
DataValue, 0.74, 1.57966E-05
DataValue, 0.75, 1.56855E-05
DataValue, 0.76, 1.02626E-05
DataValue, 0.77, 1.33319E-05
DataValue, 0.78, 1.33484E-05
DataValue, 0.79, 1.4132600000000001E-05
DataValue, 0.8, 1.4028300000000001E-05
DataValue, 0.81, 1.40511E-05
DataValue, 0.82000000000000006, 1.36481E-05
DataValue, 0.83000000000000007, 1.31142E-05
DataValue, 0.84, 1.5096200000000001E-05
DataValue, 0.85, 1.6229800000000002E-05
DataValue, 0.86, 1.6039900000000002E-05
DataValue, 0.87, 1.7121600000000002E-05
DataValue, 0.88, 1.76568E-05
DataValue, 0.89, 1.5627200000000002E-05
DataValue, 0.9, 1.94645E-05
DataValue, 0.91, 1.94492E-05
DataValue, 0.92, 2.0114700000000002E-05
DataValue, 0.93, 2.1421700000000002E-05
DataValue, 0.94000000000000006, 2.2092E-05
DataValue, 0.95000000000000007, 2.58275E-05
DataValue, 0.96, 2.7213000000000002E-05
DataValue, 0.97, 2.93462E-05
DataValue, 0.98, 3.1999600000000004E-05
DataValue, 0.99, 0.00010000240000000001
DataValue, 1, 0.00010000220000000001
DataValue, 1.01, 0.0001000023
DataValue, 1.02, 0.00010000220000000001
DataValue, 1.03, 0.0001000023
DataValue, 1.04, 0.00010000220000000001
DataValue, 1.05, 0.00010000220000000001
DataValue, 1.06, 0.00010000220000000001
DataValue, 1.07, 0.0001000023
DataValue, 1.08, 0.0001000023
DataValue, 1.09, 0.0001000023
DataValue, 1.1, 0.0001000023
DataValue, 1.11, 0.0001000023
DataValue, 1.12, 0.0001000023
DataValue, 1.1300000000000001, 0.00010000220000000001
DataValue, 1.1400000000000001, 0.0001000023
DataValue, 1.1500000000000001, 0.00010000240000000001
DataValue, 1.16, 0.00010000220000000001
DataValue, 1.17, 0.00010000220000000001
DataValue, 1.18, 0.00010000220000000001
DataValue, 1.19, 0.0001000023
DataValue, 1.2, 0.0001000023
DataValue, 1.21, 0.0001000023
DataValue, 1.22, 0.00010000220000000001
DataValue, 1.23, 0.00010000220000000001
DataValue, 1.24, 0.0001000023
DataValue, 1.25, 0.00010000220000000001
DataValue, 1.26, 0.0001000023
DataValue, 1.27, 0.00010000220000000001
DataValue, 1.28, 0.0001000023
DataValue, 1.29, 0.0001000023
DataValue, 1.3, 0.00010000220000000001
DataValue, 1.31, 0.0001000023
DataValue, 1.32, 0.0001000023
DataValue, 1.33, 0.0001000023
DataValue, 1.34, 0.0001000023
DataValue, 1.35, 0.00010000220000000001
DataValue, 1.36, 0.0001000023
DataValue, 1.37, 0.0001000025
DataValue, 1.3800000000000001, 0.0001000023
DataValue, 1.3900000000000001, 0.00010000220000000001
DataValue, 1.4000000000000001, 0.0001000023
DataValue, 1.41, 0.00010000240000000001
DataValue, 1.42, 0.0001000023
DataValue, 1.43, 0.0001000023
DataValue, 1.44, 0.0001000023
DataValue, 1.45, 0.00010000220000000001
DataValue, 1.46, 0.0001000023
DataValue, 1.47, 0.00010000220000000001
DataValue, 1.48, 0.00010000220000000001
DataValue, 1.49, 0.0001000023
DataValue, 1.5, 0.00010000220000000001
DataValue, 1.51, 0.0001000023
DataValue, 1.52, 0.0001000023
DataValue, 1.53, 0.0001000023
DataValue, 1.54, 0.0001000023
DataValue, 1.55, 0.0001000023
DataValue, 1.56, 0.00010000220000000001
DataValue, 1.57, 0.0001000023
DataValue, 1.58, 0.00010000220000000001
DataValue, 1.59, 0.0001000023
DataValue, 1.6, 0.0001000023
DataValue, 1.61, 0.0001000023
DataValue, 1.62, 0.0001000023
DataValue, 1.6300000000000001, 0.0001000023
DataValue, 1.6400000000000001, 0.00010000240000000001
DataValue, 1.6500000000000001, 0.0001000023
DataValue, 1.6600000000000001, 0.0001000023
DataValue, 1.67, 0.00010000220000000001
DataValue, 1.68, 0.00010000220000000001
DataValue, 1.69, 0.0001000023
DataValue, 1.7, 0.0001000023
DataValue, 1.71, 0.0001000023
DataValue, 1.72, 0.00010000220000000001
DataValue, 1.73, 0.0001000023
DataValue, 1.74, 0.0001000023
DataValue, 1.75, 0.0001000023
DataValue, 1.76, 0.0001000023
DataValue, 1.77, 0.0001000023
DataValue, 1.78, 0.0001000023
DataValue, 1.79, 0.0001000023
DataValue, 1.8, 0.0001000023
DataValue, 1.81, 0.00010000240000000001
DataValue, 1.82, 0.0001000023
DataValue, 1.83, 0.0001000023
DataValue, 1.84, 0.00010000240000000001
DataValue, 1.85, 0.0001000023
DataValue, 1.86, 0.00010000220000000001
DataValue, 1.87, 0.0001000023
DataValue, 1.8800000000000001, 0.0001000023
DataValue, 1.8900000000000001, 0.0001000023
DataValue, 1.9000000000000001, 0.0001000023
DataValue, 1.9100000000000001, 0.0001000023
DataValue, 1.92, 0.0001000023
DataValue, 1.93, 0.0001000023
DataValue, 1.94, 0.0001000023
DataValue, 1.95, 0.0001000023
DataValue, 1.96, 0.0001000023
DataValue, 1.97, 0.00010000220000000001
DataValue, 1.98, 0.0001000023
DataValue, 1.99, 0.0001000023
DataValue, 2, 0.0001000023
DataValue, 2.0100000000000002, 0.0001000023
DataValue, 2.02, 0.0001000023
DataValue, 2.0300000000000002, 0.00010000240000000001
DataValue, 2.04, 0.0001000023
DataValue, 2.05, 0.0001000023
DataValue, 2.06, 0.0001000023
DataValue, 2.07, 0.0001000023
DataValue, 2.08, 0.00010000240000000001
DataValue, 2.09, 0.0001000023
DataValue, 2.1, 0.00010000240000000001
DataValue, 2.11, 0.0001000023
DataValue, 2.12, 0.00010000240000000001
DataValue, 2.13, 0.0001000023
DataValue, 2.14, 0.0001000023
DataValue, 2.15, 0.00010000240000000001
DataValue, 2.16, 0.00010000240000000001
DataValue, 2.17, 0.0001000023
DataValue, 2.18, 0.0001000023
DataValue, 2.19, 0.0001000023
DataValue, 2.2, 0.0001000023
DataValue, 2.21, 0.00010000240000000001
DataValue, 2.22, 0.0001000023
DataValue, 2.23, 0.00010000240000000001
DataValue, 2.24, 0.0001000023
DataValue, 2.25, 0.0001000023
DataValue, 2.2600000000000002, 0.0001000023
DataValue, 2.27, 0.0001000023
DataValue, 2.2800000000000002, 0.0001000023
DataValue, 2.29, 0.00010000240000000001
DataValue, 2.3000000000000003, 0.0001000023
DataValue, 2.31, 0.0001000023
DataValue, 2.32, 0.0001000023
DataValue, 2.33, 0.0001000023
DataValue, 2.34, 0.0001000023
DataValue, 2.35, 0.0001000023
DataValue, 2.36, 0.0001000023
DataValue, 2.37, 0.00010000240000000001
DataValue, 2.38, 0.0001000023
DataValue, 2.39, 0.00010000240000000001
DataValue, 2.4, 0.0001000023
DataValue, 2.41, 0.0001000023
DataValue, 2.42, 0.0001000023
DataValue, 2.43, 0.00010000240000000001
DataValue, 2.44, 0.0001000023
DataValue, 2.45, 0.0001000023
DataValue, 2.46, 0.0001000023
DataValue, 2.47, 0.00010000240000000001
DataValue, 2.48, 0.00010000240000000001
DataValue, 2.49, 0.00010000240000000001
DataValue, 2.5, 0.00010000240000000001
DataValue, 2.5100000000000002, 0.00010000240000000001
DataValue, 2.52, 0.00010000240000000001
DataValue, 2.5300000000000002, 0.0001000023
DataValue, 2.54, 0.0001000023
DataValue, 2.5500000000000003, 0.0001000023
DataValue, 2.56, 0.0001000023
DataValue, 2.57, 0.0001000023
DataValue, 2.58, 0.00010000220000000001
DataValue, 2.59, 0.00010000240000000001
DataValue, 2.6, 0.00010000220000000001
DataValue, 2.61, 0.0001000023
DataValue, 2.62, 0.0001000023
DataValue, 2.63, 0.00010000220000000001
DataValue, 2.64, 0.0001000023
DataValue, 2.65, 0.0001000023
DataValue, 2.66, 0.0001000023
DataValue, 2.67, 0.00010000240000000001
DataValue, 2.68, 0.0001000023
DataValue, 2.69, 0.0001000023
DataValue, 2.7, 0.0001000023
DataValue, 2.71, 0.0001000023
DataValue, 2.72, 0.0001000023
DataValue, 2.73, 0.0001000023
DataValue, 2.74, 0.00010000240000000001
DataValue, 2.75, 0.00010000240000000001
DataValue, 2.7600000000000002, 0.0001000023
DataValue, 2.77, 0.0001000023
DataValue, 2.7800000000000002, 0.00010000240000000001
DataValue, 2.79, 0.00010000240000000001
DataValue, 2.8000000000000003, 0.00010000220000000001
DataValue, 2.81, 0.0001000023
DataValue, 2.82, 0.0001000023
DataValue, 2.83, 0.0001000023
DataValue, 2.84, 0.0001000023
DataValue, 2.85, 0.0001000023
DataValue, 2.86, 0.00010000240000000001
DataValue, 2.87, 0.0001000023
DataValue, 2.88, 0.00010000220000000001
DataValue, 2.89, 0.0001000023
DataValue, 2.9, 0.0001000023
DataValue, 2.91, 0.0001000023
DataValue, 2.92, 0.00010000220000000001
DataValue, 2.93, 0.00010000240000000001
DataValue, 2.94, 0.0001000023
DataValue, 2.95, 0.0001000023
DataValue, 2.96, 0.0001000023
DataValue, 2.97, 0.00010000240000000001
DataValue, 2.98, 0.0001000025
DataValue, 2.99, 0.00010000240000000001
DataValue, 3, 0.00010000240000000001
DataValue, 2.99, 0.00010000240000000001
DataValue, 2.98, 0.0001000023
DataValue, 2.97, 0.0001000023
DataValue, 2.96, 0.0001000023
DataValue, 2.95, 0.0001000023
DataValue, 2.94, 0.0001000023
DataValue, 2.93, 0.00010000240000000001
DataValue, 2.92, 0.0001000023
DataValue, 2.91, 0.00010000240000000001
DataValue, 2.9, 0.0001000023
DataValue, 2.89, 0.0001000023
DataValue, 2.88, 0.0001000023
DataValue, 2.87, 0.0001000023
DataValue, 2.86, 0.00010000240000000001
DataValue, 2.85, 0.0001000023
DataValue, 2.84, 0.0001000023
DataValue, 2.83, 0.0001000023
DataValue, 2.82, 0.00010000240000000001
DataValue, 2.81, 0.00010000240000000001
DataValue, 2.8000000000000003, 0.00010000240000000001
DataValue, 2.79, 0.00010000240000000001
DataValue, 2.7800000000000002, 0.0001000023
DataValue, 2.77, 0.00010000240000000001
DataValue, 2.7600000000000002, 0.0001000023
DataValue, 2.75, 0.0001000023
DataValue, 2.74, 0.0001000023
DataValue, 2.73, 0.00010000240000000001
DataValue, 2.72, 0.0001000023
DataValue, 2.71, 0.00010000240000000001
DataValue, 2.7, 0.0001000023
DataValue, 2.69, 0.00010000240000000001
DataValue, 2.68, 0.00010000240000000001
DataValue, 2.67, 0.0001000025
DataValue, 2.66, 0.00010000240000000001
DataValue, 2.65, 0.00010000240000000001
DataValue, 2.64, 0.00010000240000000001
DataValue, 2.63, 0.00010000240000000001
DataValue, 2.62, 0.0001000025
DataValue, 2.61, 0.0001000023
DataValue, 2.6, 0.0001000023
DataValue, 2.59, 0.0001000023
DataValue, 2.58, 0.00010000240000000001
DataValue, 2.57, 0.0001000023
DataValue, 2.56, 0.00010000240000000001
DataValue, 2.5500000000000003, 0.00010000220000000001
DataValue, 2.54, 0.00010000240000000001
DataValue, 2.5300000000000002, 0.0001000023
DataValue, 2.52, 0.0001000023
DataValue, 2.5100000000000002, 0.0001000023
DataValue, 2.5, 0.00010000240000000001
DataValue, 2.49, 0.00010000240000000001
DataValue, 2.48, 0.00010000240000000001
DataValue, 2.47, 0.00010000240000000001
DataValue, 2.46, 0.00010000240000000001
DataValue, 2.45, 0.00010000240000000001
DataValue, 2.44, 0.00010000240000000001
DataValue, 2.43, 0.00010000240000000001
DataValue, 2.42, 0.00010000240000000001
DataValue, 2.41, 0.0001000023
DataValue, 2.4, 0.0001000023
DataValue, 2.39, 0.0001000023
DataValue, 2.38, 0.0001000023
DataValue, 2.37, 0.0001000023
DataValue, 2.36, 0.00010000240000000001
DataValue, 2.35, 0.0001000023
DataValue, 2.34, 0.0001000023
DataValue, 2.33, 0.0001000023
DataValue, 2.32, 0.0001000023
DataValue, 2.31, 0.00010000240000000001
DataValue, 2.3000000000000003, 0.00010000240000000001
DataValue, 2.29, 0.00010000240000000001
DataValue, 2.2800000000000002, 0.00010000240000000001
DataValue, 2.27, 0.00010000240000000001
DataValue, 2.2600000000000002, 0.0001000023
DataValue, 2.25, 0.00010000240000000001
DataValue, 2.24, 0.00010000240000000001
DataValue, 2.23, 0.00010000240000000001
DataValue, 2.22, 0.0001000023
DataValue, 2.21, 0.0001000025
DataValue, 2.2, 0.0001000025
DataValue, 2.19, 0.00010000240000000001
DataValue, 2.18, 0.0001000023
DataValue, 2.17, 0.0001000023
DataValue, 2.16, 0.0001000025
DataValue, 2.15, 0.0001000023
DataValue, 2.14, 0.0001000023
DataValue, 2.13, 0.0001000023
DataValue, 2.12, 0.0001000025
DataValue, 2.11, 0.00010000220000000001
DataValue, 2.1, 0.0001000023
DataValue, 2.09, 0.00010000240000000001
DataValue, 2.08, 0.00010000240000000001
DataValue, 2.07, 0.0001000023
DataValue, 2.06, 0.00010000240000000001
DataValue, 2.05, 0.0001000025
DataValue, 2.04, 0.0001000023
DataValue, 2.0300000000000002, 0.0001000023
DataValue, 2.02, 0.0001000023
DataValue, 2.0100000000000002, 0.0001000023
DataValue, 2, 0.00010000240000000001
DataValue, 1.99, 0.0001000023
DataValue, 1.98, 0.0001000023
DataValue, 1.97, 0.00010000240000000001
DataValue, 1.96, 0.00010000240000000001
DataValue, 1.95, 0.00010000240000000001
DataValue, 1.94, 0.00010000240000000001
DataValue, 1.93, 0.00010000240000000001
DataValue, 1.92, 0.00010000240000000001
DataValue, 1.9100000000000001, 0.0001000023
DataValue, 1.9000000000000001, 0.00010000240000000001
DataValue, 1.8900000000000001, 0.00010000240000000001
DataValue, 1.8800000000000001, 0.0001000023
DataValue, 1.87, 0.0001000023
DataValue, 1.86, 0.00010000240000000001
DataValue, 1.85, 0.00010000240000000001
DataValue, 1.84, 0.0001000023
DataValue, 1.83, 0.0001000023
DataValue, 1.82, 0.00010000240000000001
DataValue, 1.81, 0.00010000240000000001
DataValue, 1.8, 0.0001000023
DataValue, 1.79, 0.0001000023
DataValue, 1.78, 0.0001000023
DataValue, 1.77, 0.00010000240000000001
DataValue, 1.76, 0.0001000023
DataValue, 1.75, 0.0001000023
DataValue, 1.74, 0.0001000023
DataValue, 1.73, 0.0001000023
DataValue, 1.72, 0.00010000240000000001
DataValue, 1.71, 0.00010000240000000001
DataValue, 1.7, 0.00010000240000000001
DataValue, 1.69, 0.0001000023
DataValue, 1.68, 0.0001000023
DataValue, 1.67, 0.0001000023
DataValue, 1.6600000000000001, 0.0001000023
DataValue, 1.6500000000000001, 0.0001000023
DataValue, 1.6400000000000001, 0.0001000023
DataValue, 1.6300000000000001, 0.00010000240000000001
DataValue, 1.62, 0.00010000240000000001
DataValue, 1.61, 0.0001000023
DataValue, 1.6, 0.0001000023
DataValue, 1.59, 0.0001000023
DataValue, 1.58, 0.00010000220000000001
DataValue, 1.57, 0.0001000023
DataValue, 1.56, 0.0001000023
DataValue, 1.55, 0.00010000240000000001
DataValue, 1.54, 0.0001000023
DataValue, 1.53, 0.00010000240000000001
DataValue, 1.52, 0.0001000023
DataValue, 1.51, 0.00010000220000000001
DataValue, 1.5, 0.0001000023
DataValue, 1.49, 0.0001000023
DataValue, 1.48, 0.00010000240000000001
DataValue, 1.47, 0.0001000023
DataValue, 1.46, 0.0001000023
DataValue, 1.45, 0.0001000023
DataValue, 1.44, 0.0001000023
DataValue, 1.43, 0.0001000023
DataValue, 1.42, 0.00010000220000000001
DataValue, 1.41, 0.0001000023
DataValue, 1.4000000000000001, 0.00010000220000000001
DataValue, 1.3900000000000001, 0.0001000023
DataValue, 1.3800000000000001, 0.00010000240000000001
DataValue, 1.37, 0.0001000023
DataValue, 1.36, 0.0001000023
DataValue, 1.35, 0.0001000023
DataValue, 1.34, 0.0001000023
DataValue, 1.33, 0.00010000240000000001
DataValue, 1.32, 0.0001000023
DataValue, 1.31, 0.0001000023
DataValue, 1.3, 0.0001000023
DataValue, 1.29, 0.0001000023
DataValue, 1.28, 0.0001000023
DataValue, 1.27, 0.0001000023
DataValue, 1.26, 0.0001000023
DataValue, 1.25, 0.0001000025
DataValue, 1.24, 0.00010000240000000001
DataValue, 1.23, 0.0001000023
DataValue, 1.22, 0.0001000023
DataValue, 1.21, 0.00010000220000000001
DataValue, 1.2, 0.0001000023
DataValue, 1.19, 0.0001000023
DataValue, 1.18, 0.0001000023
DataValue, 1.17, 0.00010000240000000001
DataValue, 1.16, 0.0001000023
DataValue, 1.1500000000000001, 0.0001000023
DataValue, 1.1400000000000001, 0.00010000220000000001
DataValue, 1.1300000000000001, 0.00010000220000000001
DataValue, 1.12, 0.0001000023
DataValue, 1.11, 0.00010000240000000001
DataValue, 1.1, 0.0001000023
DataValue, 1.09, 0.0001000023
DataValue, 1.08, 0.0001000023
DataValue, 1.07, 0.0001000023
DataValue, 1.06, 0.00010000220000000001
DataValue, 1.05, 0.0001000023
DataValue, 1.04, 0.00010000240000000001
DataValue, 1.03, 0.0001000023
DataValue, 1.02, 0.00010000240000000001
DataValue, 1.01, 0.0001000023
DataValue, 1, 0.00010000220000000001
DataValue, 0.99, 0.0001000023
DataValue, 0.98, 0.0001000023
DataValue, 0.97, 0.00010000220000000001
DataValue, 0.96, 0.0001000023
DataValue, 0.95000000000000007, 0.00010000240000000001
DataValue, 0.94000000000000006, 0.0001000023
DataValue, 0.93, 0.0001000023
DataValue, 0.92, 0.0001000023
DataValue, 0.91, 0.0001000023
DataValue, 0.9, 0.0001000023
DataValue, 0.89, 0.0001000023
DataValue, 0.88, 0.0001000023
DataValue, 0.87, 0.0001000023
DataValue, 0.86, 0.0001000023
DataValue, 0.85, 0.0001000023
DataValue, 0.84, 0.00010000220000000001
DataValue, 0.83000000000000007, 0.0001000023
DataValue, 0.82000000000000006, 0.0001000023
DataValue, 0.81, 0.0001000023
DataValue, 0.8, 0.0001000023
DataValue, 0.79, 0.0001000023
DataValue, 0.78, 0.0001000023
DataValue, 0.77, 0.0001000023
DataValue, 0.76, 0.0001000023
DataValue, 0.75, 0.00010000220000000001
DataValue, 0.74, 0.0001000023
