
SetupTitle, SET+RESET
ApplicationTest, DoubleSweep_IV, Public
TestParameter, Name, Port1, Port2, Vstart1, Vstop1, Vstep1, Compliance1, Vstart2, Vstop2, Vstep2, Compliance2, IntegTime, HoldTime, DelayTime, MinRange
TestParameter, Value, SMU1:MP	MPSMU, SMU2:MP	MPSMU, 0, 3, 0.01, 0.00030000000000000003, 0, -1.4, 0.01, 0.1, MEDIUM, 0, 0, 1nA
DutParameter, Name, Temp, CCMax
DutParameter, Value, 25, 0.1
MetaData, TestRecord.EntryPoint, true
MetaData, TestRecord.RecordTime, 10/13/2025 14:32:34
MetaData, TestRecord.TestTarget, 
MetaData, TestRecord.IterationIndex, 6
MetaData, TestRecord.Preservation, true
MetaData, TestRecord.Flag, 
MetaData, TestRecord.Remarks, 
MetaData, TestRecord.LinkKey, 4d42e737-2a03-4842-883f-8a2c695a8e6f
MetaData, TestRecord.Parameters, 
Dimension1, 881, 881
Dimension2, 1, 1
DataName, V1, I1
DataValue, 0, 3.2754000000000005E-11
DataValue, 0.01, 8.82047E-09
DataValue, 0.02, 1.7485299999999997E-08
DataValue, 0.03, 2.5716799999999997E-08
DataValue, 0.04, 3.5643699999999995E-08
DataValue, 0.05, 4.5858999999999994E-08
DataValue, 0.06, 5.7284799999999996E-08
DataValue, 0.07, 6.59831E-08
DataValue, 0.08, 7.75741E-08
DataValue, 0.09, 9.03874E-08
DataValue, 0.1, 1.0294169999999999E-07
DataValue, 0.11, 1.17503E-07
DataValue, 0.12, 1.36237E-07
DataValue, 0.13, 1.51825E-07
DataValue, 0.14, 1.73976E-07
DataValue, 0.15, 1.79465E-07
DataValue, 0.16, 2.02006E-07
DataValue, 0.17, 2.27466E-07
DataValue, 0.18, 2.46304E-07
DataValue, 0.19, 2.6994099999999997E-07
DataValue, 0.2, 2.96166E-07
DataValue, 0.21, 3.27724E-07
DataValue, 0.22, 3.58412E-07
DataValue, 0.23, 3.88859E-07
DataValue, 0.24, 4.1796599999999997E-07
DataValue, 0.25, 4.5603E-07
DataValue, 0.26, 5.05936E-07
DataValue, 0.27, 5.5022299999999994E-07
DataValue, 0.28, 6.15657E-07
DataValue, 0.29, 6.73996E-07
DataValue, 0.3, 7.17292E-07
DataValue, 0.31, 7.54404E-07
DataValue, 0.32, 8.72653E-07
DataValue, 0.33, 9.43556E-07
DataValue, 0.34, 1.005322E-06
DataValue, 0.35000000000000003, 1.052801E-06
DataValue, 0.36, 1.1226800000000002E-06
DataValue, 0.37, 1.2165100000000002E-06
DataValue, 0.38, 1.3109900000000002E-06
DataValue, 0.39, 1.3947700000000002E-06
DataValue, 0.4, 1.39353E-06
DataValue, 0.41000000000000003, 1.4587500000000002E-06
DataValue, 0.42, 1.5697700000000002E-06
DataValue, 0.43, 1.7465300000000001E-06
DataValue, 0.44, 1.85122E-06
DataValue, 0.45, 1.96371E-06
DataValue, 0.46, 1.93649E-06
DataValue, 0.47000000000000003, 2.00021E-06
DataValue, 0.48, 2.13561E-06
DataValue, 0.49, 2.25396E-06
DataValue, 0.5, 2.37175E-06
DataValue, 0.51, 2.50446E-06
DataValue, 0.52, 2.6725000000000002E-06
DataValue, 0.53, 2.8617400000000003E-06
DataValue, 0.54, 2.80495E-06
DataValue, 0.55, 2.8381700000000002E-06
DataValue, 0.56, 3.0527400000000003E-06
DataValue, 0.57000000000000006, 3.2829800000000005E-06
DataValue, 0.58, 3.41527E-06
DataValue, 0.59, 3.6383100000000002E-06
DataValue, 0.6, 3.81579E-06
DataValue, 0.61, 4.0371100000000006E-06
DataValue, 0.62, 4.4165800000000005E-06
DataValue, 0.63, 4.8257400000000005E-06
DataValue, 0.64, 5.00168E-06
DataValue, 0.65, 4.77033E-06
DataValue, 0.66, 4.81541E-06
DataValue, 0.67, 4.9573800000000005E-06
DataValue, 0.68, 5.0677500000000007E-06
DataValue, 0.69000000000000006, 5.1068000000000008E-06
DataValue, 0.70000000000000007, 5.1818700000000008E-06
DataValue, 0.71, 5.1546400000000008E-06
DataValue, 0.72, 5.4382200000000004E-06
DataValue, 0.73, 4.9518400000000009E-06
DataValue, 0.74, 5.11103E-06
DataValue, 0.75, 5.2476900000000007E-06
DataValue, 0.76, 5.3899600000000007E-06
DataValue, 0.77, 5.70644E-06
DataValue, 0.78, 6.12836E-06
DataValue, 0.79, 5.804900000000001E-06
DataValue, 0.8, 5.9422900000000008E-06
DataValue, 0.81, 6.40392E-06
DataValue, 0.82000000000000006, 6.4868300000000007E-06
DataValue, 0.83000000000000007, 6.80044E-06
DataValue, 0.84, 7.2372800000000004E-06
DataValue, 0.85, 7.10875E-06
DataValue, 0.86, 7.140520000000001E-06
DataValue, 0.87, 7.2396600000000009E-06
DataValue, 0.88, 7.4606100000000009E-06
DataValue, 0.89, 8.00364E-06
DataValue, 0.9, 8.3163400000000014E-06
DataValue, 0.91, 8.2193800000000016E-06
DataValue, 0.92, 9.0340700000000018E-06
DataValue, 0.93, 9.1972800000000012E-06
DataValue, 0.94000000000000006, 1.29501E-05
DataValue, 0.95000000000000007, 1.31196E-05
DataValue, 0.96, 1.3194700000000001E-05
DataValue, 0.97, 0.000300043
DataValue, 0.98, 0.000300034
DataValue, 0.99, 0.00030003
DataValue, 1, 0.00030003200000000004
DataValue, 1.01, 0.00030003
DataValue, 1.02, 0.00030003100000000003
DataValue, 1.03, 0.000300029
DataValue, 1.04, 0.000300029
DataValue, 1.05, 0.00030003
DataValue, 1.06, 0.000300029
DataValue, 1.07, 0.00030002800000000004
DataValue, 1.08, 0.000300029
DataValue, 1.09, 0.00030003
DataValue, 1.1, 0.000300029
DataValue, 1.11, 0.000300029
DataValue, 1.12, 0.00030002800000000004
DataValue, 1.1300000000000001, 0.000300029
DataValue, 1.1400000000000001, 0.00030002800000000004
DataValue, 1.1500000000000001, 0.00030002800000000004
DataValue, 1.16, 0.000300029
DataValue, 1.17, 0.00030003
DataValue, 1.18, 0.00030002800000000004
DataValue, 1.19, 0.00030003
DataValue, 1.2, 0.00030002800000000004
DataValue, 1.21, 0.00030002800000000004
DataValue, 1.22, 0.000300029
DataValue, 1.23, 0.000300029
DataValue, 1.24, 0.000300029
DataValue, 1.25, 0.00030002800000000004
DataValue, 1.26, 0.00030002800000000004
DataValue, 1.27, 0.000300029
DataValue, 1.28, 0.000300029
DataValue, 1.29, 0.00030003
DataValue, 1.3, 0.00030002800000000004
DataValue, 1.31, 0.000300029
DataValue, 1.32, 0.00030002800000000004
DataValue, 1.33, 0.00030002800000000004
DataValue, 1.34, 0.00030002800000000004
DataValue, 1.35, 0.00030002800000000004
DataValue, 1.36, 0.000300029
DataValue, 1.37, 0.000300029
DataValue, 1.3800000000000001, 0.00030002800000000004
DataValue, 1.3900000000000001, 0.000300029
DataValue, 1.4000000000000001, 0.00030003
DataValue, 1.41, 0.00030002800000000004
DataValue, 1.42, 0.000300029
DataValue, 1.43, 0.000300029
DataValue, 1.44, 0.00030002800000000004
DataValue, 1.45, 0.00030003
DataValue, 1.46, 0.000300029
DataValue, 1.47, 0.00030002800000000004
DataValue, 1.48, 0.00030003
DataValue, 1.49, 0.00030002800000000004
DataValue, 1.5, 0.000300029
DataValue, 1.51, 0.00030002800000000004
DataValue, 1.52, 0.00030002800000000004
DataValue, 1.53, 0.00030002800000000004
DataValue, 1.54, 0.000300029
DataValue, 1.55, 0.00030002800000000004
DataValue, 1.56, 0.00030002800000000004
DataValue, 1.57, 0.00030002800000000004
DataValue, 1.58, 0.00030002800000000004
DataValue, 1.59, 0.00030003
DataValue, 1.6, 0.000300029
DataValue, 1.61, 0.000300029
DataValue, 1.62, 0.00030002800000000004
DataValue, 1.6300000000000001, 0.00030002800000000004
DataValue, 1.6400000000000001, 0.000300029
DataValue, 1.6500000000000001, 0.00030002800000000004
DataValue, 1.6600000000000001, 0.00030002800000000004
DataValue, 1.67, 0.000300029
DataValue, 1.68, 0.00030002800000000004
DataValue, 1.69, 0.000300029
DataValue, 1.7, 0.00030002800000000004
DataValue, 1.71, 0.00030002800000000004
DataValue, 1.72, 0.00030002800000000004
DataValue, 1.73, 0.00030002800000000004
DataValue, 1.74, 0.00030002800000000004
DataValue, 1.75, 0.00030002800000000004
DataValue, 1.76, 0.00030002800000000004
DataValue, 1.77, 0.000300029
DataValue, 1.78, 0.000300029
DataValue, 1.79, 0.00030002800000000004
DataValue, 1.8, 0.000300029
DataValue, 1.81, 0.000300029
DataValue, 1.82, 0.00030002800000000004
DataValue, 1.83, 0.00030002800000000004
DataValue, 1.84, 0.00030002800000000004
DataValue, 1.85, 0.00030002800000000004
DataValue, 1.86, 0.00030002800000000004
DataValue, 1.87, 0.00030002800000000004
DataValue, 1.8800000000000001, 0.000300029
DataValue, 1.8900000000000001, 0.00030002800000000004
DataValue, 1.9000000000000001, 0.00030002800000000004
DataValue, 1.9100000000000001, 0.00030002800000000004
DataValue, 1.92, 0.000300029
DataValue, 1.93, 0.000300029
DataValue, 1.94, 0.00030002800000000004
DataValue, 1.95, 0.000300029
DataValue, 1.96, 0.00030002800000000004
DataValue, 1.97, 0.00030002800000000004
DataValue, 1.98, 0.00030002800000000004
DataValue, 1.99, 0.00030002800000000004
DataValue, 2, 0.00030002800000000004
DataValue, 2.0100000000000002, 0.00030002800000000004
DataValue, 2.02, 0.00030002800000000004
DataValue, 2.0300000000000002, 0.00030002800000000004
DataValue, 2.04, 0.00030002800000000004
DataValue, 2.05, 0.00030002800000000004
DataValue, 2.06, 0.00030002800000000004
DataValue, 2.07, 0.00030002800000000004
DataValue, 2.08, 0.00030002800000000004
DataValue, 2.09, 0.00030002800000000004
DataValue, 2.1, 0.000300027
DataValue, 2.11, 0.00030002800000000004
DataValue, 2.12, 0.00030002800000000004
DataValue, 2.13, 0.00030002800000000004
DataValue, 2.14, 0.00030002800000000004
DataValue, 2.15, 0.00030002800000000004
DataValue, 2.16, 0.00030002800000000004
DataValue, 2.17, 0.000300029
DataValue, 2.18, 0.00030002800000000004
DataValue, 2.19, 0.00030002800000000004
DataValue, 2.2, 0.00030002800000000004
DataValue, 2.21, 0.00030002800000000004
DataValue, 2.22, 0.00030002800000000004
DataValue, 2.23, 0.00030002800000000004
DataValue, 2.24, 0.00030002800000000004
DataValue, 2.25, 0.00030002800000000004
DataValue, 2.2600000000000002, 0.00030002800000000004
DataValue, 2.27, 0.00030002800000000004
DataValue, 2.2800000000000002, 0.00030002800000000004
DataValue, 2.29, 0.00030002800000000004
DataValue, 2.3000000000000003, 0.000300029
DataValue, 2.31, 0.00030002800000000004
DataValue, 2.32, 0.00030002800000000004
DataValue, 2.33, 0.00030002800000000004
DataValue, 2.34, 0.00030002800000000004
DataValue, 2.35, 0.00030002800000000004
DataValue, 2.36, 0.00030002800000000004
DataValue, 2.37, 0.00030002800000000004
DataValue, 2.38, 0.00030002800000000004
DataValue, 2.39, 0.00030002800000000004
DataValue, 2.4, 0.00030002800000000004
DataValue, 2.41, 0.000300029
DataValue, 2.42, 0.000300027
DataValue, 2.43, 0.00030002800000000004
DataValue, 2.44, 0.00030002800000000004
DataValue, 2.45, 0.00030002800000000004
DataValue, 2.46, 0.00030002800000000004
DataValue, 2.47, 0.000300029
DataValue, 2.48, 0.00030002800000000004
DataValue, 2.49, 0.00030002800000000004
DataValue, 2.5, 0.000300027
DataValue, 2.5100000000000002, 0.00030002800000000004
DataValue, 2.52, 0.00030002800000000004
DataValue, 2.5300000000000002, 0.00030002800000000004
DataValue, 2.54, 0.000300027
DataValue, 2.5500000000000003, 0.00030002800000000004
DataValue, 2.56, 0.00030002800000000004
DataValue, 2.57, 0.00030002800000000004
DataValue, 2.58, 0.000300029
DataValue, 2.59, 0.00030002800000000004
DataValue, 2.6, 0.00030002800000000004
DataValue, 2.61, 0.00030002800000000004
DataValue, 2.62, 0.00030002800000000004
DataValue, 2.63, 0.00030002800000000004
DataValue, 2.64, 0.000300029
DataValue, 2.65, 0.00030002800000000004
DataValue, 2.66, 0.00030002800000000004
DataValue, 2.67, 0.00030002800000000004
DataValue, 2.68, 0.00030002800000000004
DataValue, 2.69, 0.00030002800000000004
DataValue, 2.7, 0.00030002800000000004
DataValue, 2.71, 0.00030002800000000004
DataValue, 2.72, 0.00030002800000000004
DataValue, 2.73, 0.00030002800000000004
DataValue, 2.74, 0.00030002800000000004
DataValue, 2.75, 0.00030002800000000004
DataValue, 2.7600000000000002, 0.00030002800000000004
DataValue, 2.77, 0.000300029
DataValue, 2.7800000000000002, 0.00030002800000000004
DataValue, 2.79, 0.000300029
DataValue, 2.8000000000000003, 0.00030002800000000004
DataValue, 2.81, 0.00030002800000000004
DataValue, 2.82, 0.00030002800000000004
DataValue, 2.83, 0.000300029
DataValue, 2.84, 0.00030002800000000004
DataValue, 2.85, 0.00030002800000000004
DataValue, 2.86, 0.00030002800000000004
DataValue, 2.87, 0.00030002800000000004
DataValue, 2.88, 0.00030002800000000004
DataValue, 2.89, 0.00030002800000000004
DataValue, 2.9, 0.00030002800000000004
DataValue, 2.91, 0.000300029
DataValue, 2.92, 0.000300029
DataValue, 2.93, 0.00030002800000000004
DataValue, 2.94, 0.00030002800000000004
DataValue, 2.95, 0.00030002800000000004
DataValue, 2.96, 0.00030002800000000004
DataValue, 2.97, 0.00030002800000000004
DataValue, 2.98, 0.000300029
DataValue, 2.99, 0.00030002800000000004
DataValue, 3, 0.00030002800000000004
DataValue, 2.99, 0.00030002800000000004
DataValue, 2.98, 0.000300029
DataValue, 2.97, 0.00030002800000000004
DataValue, 2.96, 0.000300029
DataValue, 2.95, 0.00030002800000000004
DataValue, 2.94, 0.00030002800000000004
DataValue, 2.93, 0.00030002800000000004
DataValue, 2.92, 0.00030002800000000004
DataValue, 2.91, 0.00030002800000000004
DataValue, 2.9, 0.00030002800000000004
DataValue, 2.89, 0.00030002800000000004
DataValue, 2.88, 0.00030002800000000004
DataValue, 2.87, 0.00030002800000000004
DataValue, 2.86, 0.00030002800000000004
DataValue, 2.85, 0.00030002800000000004
DataValue, 2.84, 0.00030002800000000004
DataValue, 2.83, 0.00030002800000000004
DataValue, 2.82, 0.00030002800000000004
DataValue, 2.81, 0.00030002800000000004
DataValue, 2.8000000000000003, 0.00030002800000000004
DataValue, 2.79, 0.00030002800000000004
DataValue, 2.7800000000000002, 0.00030002800000000004
DataValue, 2.77, 0.00030002800000000004
DataValue, 2.7600000000000002, 0.00030002800000000004
DataValue, 2.75, 0.000300029
DataValue, 2.74, 0.00030002800000000004
DataValue, 2.73, 0.00030002800000000004
DataValue, 2.72, 0.00030002800000000004
DataValue, 2.71, 0.00030002800000000004
DataValue, 2.7, 0.00030002800000000004
DataValue, 2.69, 0.00030002800000000004
DataValue, 2.68, 0.00030002800000000004
DataValue, 2.67, 0.00030002800000000004
DataValue, 2.66, 0.00030002800000000004
DataValue, 2.65, 0.00030002800000000004
DataValue, 2.64, 0.00030002800000000004
DataValue, 2.63, 0.00030002800000000004
DataValue, 2.62, 0.000300029
DataValue, 2.61, 0.00030002800000000004
DataValue, 2.6, 0.00030002800000000004
DataValue, 2.59, 0.00030002800000000004
DataValue, 2.58, 0.00030002800000000004
DataValue, 2.57, 0.00030002800000000004
DataValue, 2.56, 0.00030002800000000004
DataValue, 2.5500000000000003, 0.00030002800000000004
DataValue, 2.54, 0.00030002800000000004
DataValue, 2.5300000000000002, 0.00030002800000000004
DataValue, 2.52, 0.00030002800000000004
DataValue, 2.5100000000000002, 0.000300029
DataValue, 2.5, 0.00030002800000000004
DataValue, 2.49, 0.00030002800000000004
DataValue, 2.48, 0.00030002800000000004
DataValue, 2.47, 0.00030002800000000004
DataValue, 2.46, 0.00030002800000000004
DataValue, 2.45, 0.00030002800000000004
DataValue, 2.44, 0.00030002800000000004
DataValue, 2.43, 0.00030002800000000004
DataValue, 2.42, 0.000300029
DataValue, 2.41, 0.000300029
DataValue, 2.4, 0.00030002800000000004
DataValue, 2.39, 0.00030002800000000004
DataValue, 2.38, 0.00030002800000000004
DataValue, 2.37, 0.00030002800000000004
DataValue, 2.36, 0.00030002800000000004
DataValue, 2.35, 0.00030002800000000004
DataValue, 2.34, 0.00030002800000000004
DataValue, 2.33, 0.00030002800000000004
DataValue, 2.32, 0.00030002800000000004
DataValue, 2.31, 0.00030002800000000004
DataValue, 2.3000000000000003, 0.000300029
DataValue, 2.29, 0.00030002800000000004
DataValue, 2.2800000000000002, 0.00030002800000000004
DataValue, 2.27, 0.00030002800000000004
DataValue, 2.2600000000000002, 0.00030002800000000004
DataValue, 2.25, 0.00030002800000000004
DataValue, 2.24, 0.00030002800000000004
DataValue, 2.23, 0.00030002800000000004
DataValue, 2.22, 0.00030002800000000004
DataValue, 2.21, 0.00030002800000000004
DataValue, 2.2, 0.00030002800000000004
DataValue, 2.19, 0.00030002800000000004
DataValue, 2.18, 0.00030002800000000004
DataValue, 2.17, 0.000300029
DataValue, 2.16, 0.00030002800000000004
DataValue, 2.15, 0.00030002800000000004
DataValue, 2.14, 0.00030002800000000004
DataValue, 2.13, 0.00030002800000000004
DataValue, 2.12, 0.00030002800000000004
DataValue, 2.11, 0.000300029
DataValue, 2.1, 0.00030002800000000004
DataValue, 2.09, 0.000300029
DataValue, 2.08, 0.00030002800000000004
DataValue, 2.07, 0.00030002800000000004
DataValue, 2.06, 0.00030002800000000004
DataValue, 2.05, 0.00030002800000000004
DataValue, 2.04, 0.00030002800000000004
DataValue, 2.0300000000000002, 0.00030002800000000004
DataValue, 2.02, 0.00030002800000000004
DataValue, 2.0100000000000002, 0.00030002800000000004
DataValue, 2, 0.00030002800000000004
DataValue, 1.99, 0.00030002800000000004
DataValue, 1.98, 0.00030002800000000004
DataValue, 1.97, 0.00030002800000000004
DataValue, 1.96, 0.00030002800000000004
DataValue, 1.95, 0.00030002800000000004
DataValue, 1.94, 0.00030002800000000004
DataValue, 1.93, 0.00030002800000000004
DataValue, 1.92, 0.00030002800000000004
DataValue, 1.9100000000000001, 0.00030002800000000004
DataValue, 1.9000000000000001, 0.00030002800000000004
DataValue, 1.8900000000000001, 0.00030002800000000004
DataValue, 1.8800000000000001, 0.00030002800000000004
DataValue, 1.87, 0.00030002800000000004
DataValue, 1.86, 0.00030002800000000004
DataValue, 1.85, 0.00030002800000000004
DataValue, 1.84, 0.00030002800000000004
DataValue, 1.83, 0.00030002800000000004
DataValue, 1.82, 0.00030002800000000004
DataValue, 1.81, 0.00030002800000000004
DataValue, 1.8, 0.00030002800000000004
DataValue, 1.79, 0.000300029
DataValue, 1.78, 0.00030002800000000004
DataValue, 1.77, 0.00030002800000000004
DataValue, 1.76, 0.00030002800000000004
DataValue, 1.75, 0.00030002800000000004
DataValue, 1.74, 0.00030002800000000004
DataValue, 1.73, 0.00030002800000000004
DataValue, 1.72, 0.00030002800000000004
DataValue, 1.71, 0.00030002800000000004
DataValue, 1.7, 0.00030002800000000004
DataValue, 1.69, 0.00030002800000000004
DataValue, 1.68, 0.000300029
DataValue, 1.67, 0.000300027
DataValue, 1.6600000000000001, 0.00030002800000000004
DataValue, 1.6500000000000001, 0.000300027
DataValue, 1.6400000000000001, 0.00030002800000000004
DataValue, 1.6300000000000001, 0.00030002800000000004
DataValue, 1.62, 0.00030002800000000004
DataValue, 1.61, 0.00030002800000000004
DataValue, 1.6, 0.00030002800000000004
DataValue, 1.59, 0.00030002800000000004
DataValue, 1.58, 0.00030002800000000004
DataValue, 1.57, 0.00030002800000000004
DataValue, 1.56, 0.00030002800000000004
DataValue, 1.55, 0.000300027
DataValue, 1.54, 0.00030002800000000004
DataValue, 1.53, 0.00030002800000000004
DataValue, 1.52, 0.000300029
DataValue, 1.51, 0.00030002800000000004
DataValue, 1.5, 0.00030002800000000004
DataValue, 1.49, 0.00030002800000000004
DataValue, 1.48, 0.00030002800000000004
DataValue, 1.47, 0.00030002800000000004
DataValue, 1.46, 0.00030002800000000004
DataValue, 1.45, 0.00030002800000000004
DataValue, 1.44, 0.00030002800000000004
DataValue, 1.43, 0.00030002800000000004
DataValue, 1.42, 0.00030002800000000004
DataValue, 1.41, 0.000300027
DataValue, 1.4000000000000001, 0.00030002800000000004
DataValue, 1.3900000000000001, 0.00030002800000000004
DataValue, 1.3800000000000001, 0.00030002800000000004
DataValue, 1.37, 0.00030002800000000004
DataValue, 1.36, 0.00030002800000000004
DataValue, 1.35, 0.00030002800000000004
DataValue, 1.34, 0.000300027
DataValue, 1.33, 0.00030002800000000004
DataValue, 1.32, 0.000300027
DataValue, 1.31, 0.00030002800000000004
DataValue, 1.3, 0.000300027
DataValue, 1.29, 0.00030002800000000004
DataValue, 1.28, 0.00030002800000000004
DataValue, 1.27, 0.00030002800000000004
DataValue, 1.26, 0.00030002800000000004
DataValue, 1.25, 0.00030002800000000004
DataValue, 1.24, 0.00030002800000000004
DataValue, 1.23, 0.00030002800000000004
DataValue, 1.22, 0.00030002800000000004
DataValue, 1.21, 0.00030002800000000004
DataValue, 1.2, 0.00030002800000000004
DataValue, 1.19, 0.00030002800000000004
DataValue, 1.18, 0.000300027
DataValue, 1.17, 0.00030002800000000004
DataValue, 1.16, 0.00030002800000000004
