
SetupTitle, SET+RESET
ApplicationTest, DoubleSweep_IV, Public
TestParameter, Name, Port1, Port2, Vstart1, Vstop1, Vstep1, Compliance1, Vstart2, Vstop2, Vstep2, Compliance2, IntegTime, HoldTime, DelayTime, MinRange
TestParameter, Value, SMU1:MP	MPSMU, SMU2:MP	MPSMU, 0, 3, 0.01, 0.0005, 0, -1.4, 0.01, 0.1, MEDIUM, 0, 0, 1nA
DutParameter, Name, Temp, CCMax
DutParameter, Value, 25, 0.1
MetaData, TestRecord.EntryPoint, true
MetaData, TestRecord.RecordTime, 10/13/2025 14:47:42
MetaData, TestRecord.TestTarget, 
MetaData, TestRecord.IterationIndex, 7
MetaData, TestRecord.Preservation, true
MetaData, TestRecord.Flag, 
MetaData, TestRecord.Remarks, 
MetaData, TestRecord.LinkKey, 32c0987d-b00f-4193-9a9d-bc038798bc80
MetaData, TestRecord.Parameters, 
Dimension1, 881, 881
Dimension2, 1, 1
DataName, V1, I1
DataValue, 0, 2.2354E-11
DataValue, 0.01, 5.48977E-09
DataValue, 0.02, 1.11439E-08
DataValue, 0.03, 1.6938699999999997E-08
DataValue, 0.04, 2.3206499999999997E-08
DataValue, 0.05, 2.9735299999999998E-08
DataValue, 0.06, 3.7000599999999993E-08
DataValue, 0.07, 4.49443E-08
DataValue, 0.08, 5.2713E-08
DataValue, 0.09, 6.15853E-08
DataValue, 0.1, 7.1449899999999989E-08
DataValue, 0.11, 8.2220199999999989E-08
DataValue, 0.12, 9.3662599999999988E-08
DataValue, 0.13, 1.0532619999999998E-07
DataValue, 0.14, 1.18327E-07
DataValue, 0.15, 1.38146E-07
DataValue, 0.16, 1.54434E-07
DataValue, 0.17, 1.6751E-07
DataValue, 0.18, 1.8888E-07
DataValue, 0.19, 2.14392E-07
DataValue, 0.2, 2.36844E-07
DataValue, 0.21, 2.58472E-07
DataValue, 0.22, 2.88428E-07
DataValue, 0.23, 3.22501E-07
DataValue, 0.24, 3.5432999999999997E-07
DataValue, 0.25, 3.89515E-07
DataValue, 0.26, 4.31451E-07
DataValue, 0.27, 4.74963E-07
DataValue, 0.28, 5.19758E-07
DataValue, 0.29, 5.62435E-07
DataValue, 0.3, 6.05059E-07
DataValue, 0.31, 6.62477E-07
DataValue, 0.32, 7.21941E-07
DataValue, 0.33, 7.7472199999999994E-07
DataValue, 0.34, 8.43371E-07
DataValue, 0.35000000000000003, 9.18594E-07
DataValue, 0.36, 1.005449E-06
DataValue, 0.37, 1.0922229999999999E-06
DataValue, 0.38, 1.15522E-06
DataValue, 0.39, 1.2478000000000002E-06
DataValue, 0.4, 1.3318400000000002E-06
DataValue, 0.41000000000000003, 1.4172600000000001E-06
DataValue, 0.42, 1.4347700000000002E-06
DataValue, 0.43, 1.51915E-06
DataValue, 0.44, 1.6169700000000002E-06
DataValue, 0.45, 1.7138900000000002E-06
DataValue, 0.46, 1.7927500000000001E-06
DataValue, 0.47000000000000003, 1.9520400000000004E-06
DataValue, 0.48, 2.09064E-06
DataValue, 0.49, 2.15991E-06
DataValue, 0.5, 2.2543700000000004E-06
DataValue, 0.51, 2.39737E-06
DataValue, 0.52, 2.5839100000000002E-06
DataValue, 0.53, 2.7896600000000003E-06
DataValue, 0.54, 2.92682E-06
DataValue, 0.55, 3.1169500000000003E-06
DataValue, 0.56, 3.2924900000000004E-06
DataValue, 0.57000000000000006, 3.4597900000000005E-06
DataValue, 0.58, 3.6304600000000004E-06
DataValue, 0.59, 3.7750000000000003E-06
DataValue, 0.6, 4.0441200000000005E-06
DataValue, 0.61, 4.64897E-06
DataValue, 0.62, 5.98258E-06
DataValue, 0.63, 6.258800000000001E-06
DataValue, 0.64, 6.43551E-06
DataValue, 0.65, 6.63877E-06
DataValue, 0.66, 6.8659600000000006E-06
DataValue, 0.67, 7.1782100000000009E-06
DataValue, 0.68, 7.4317200000000009E-06
DataValue, 0.69000000000000006, 7.867290000000001E-06
DataValue, 0.70000000000000007, 7.8566600000000011E-06
DataValue, 0.71, 8.13649E-06
DataValue, 0.72, 8.3593500000000015E-06
DataValue, 0.73, 8.2913000000000014E-06
DataValue, 0.74, 8.47843E-06
DataValue, 0.75, 8.6095300000000016E-06
DataValue, 0.76, 8.97692E-06
DataValue, 0.77, 9.35332E-06
DataValue, 0.78, 9.64588E-06
DataValue, 0.79, 9.7689800000000011E-06
DataValue, 0.8, 1.054242E-05
DataValue, 0.81, 1.1354040000000001E-05
DataValue, 0.82000000000000006, 1.06002E-05
DataValue, 0.83000000000000007, 9.6942300000000015E-06
DataValue, 0.84, 1.0195500000000001E-05
DataValue, 0.85, 1.27872E-05
DataValue, 0.86, 1.15088E-05
DataValue, 0.87, 1.17287E-05
DataValue, 0.88, 1.20214E-05
DataValue, 0.89, 1.1940000000000001E-05
DataValue, 0.9, 1.26753E-05
DataValue, 0.91, 1.17464E-05
DataValue, 0.92, 1.17982E-05
DataValue, 0.93, 1.2161900000000001E-05
DataValue, 0.94000000000000006, 1.2647000000000001E-05
DataValue, 0.95000000000000007, 1.2987800000000001E-05
DataValue, 0.96, 1.35114E-05
DataValue, 0.97, 1.35722E-05
DataValue, 0.98, 1.4795600000000001E-05
DataValue, 0.99, 1.4645800000000001E-05
DataValue, 1, 1.61333E-05
DataValue, 1.01, 1.68877E-05
DataValue, 1.02, 1.8529E-05
DataValue, 1.03, 1.87988E-05
DataValue, 1.04, 2.26866E-05
DataValue, 1.05, 2.47665E-05
DataValue, 1.06, 0.000499998
DataValue, 1.07, 0.000499991
DataValue, 1.08, 0.000499991
DataValue, 1.09, 0.00049999000000000007
DataValue, 1.1, 0.000499991
DataValue, 1.11, 0.00049999000000000007
DataValue, 1.12, 0.00049999000000000007
DataValue, 1.1300000000000001, 0.00049999000000000007
DataValue, 1.1400000000000001, 0.00049999000000000007
DataValue, 1.1500000000000001, 0.000499989
DataValue, 1.16, 0.00049999000000000007
DataValue, 1.17, 0.000499989
DataValue, 1.18, 0.000499989
DataValue, 1.19, 0.00049999000000000007
DataValue, 1.2, 0.00049999000000000007
DataValue, 1.21, 0.00049999000000000007
DataValue, 1.22, 0.000499989
DataValue, 1.23, 0.00049999000000000007
DataValue, 1.24, 0.000499989
DataValue, 1.25, 0.000499989
DataValue, 1.26, 0.00049999000000000007
DataValue, 1.27, 0.000499989
DataValue, 1.28, 0.00049999000000000007
DataValue, 1.29, 0.000499989
DataValue, 1.3, 0.00049999000000000007
DataValue, 1.31, 0.000499988
DataValue, 1.32, 0.00049999000000000007
DataValue, 1.33, 0.000499989
DataValue, 1.34, 0.000499989
DataValue, 1.35, 0.000499989
DataValue, 1.36, 0.000499989
DataValue, 1.37, 0.000499989
DataValue, 1.3800000000000001, 0.000499989
DataValue, 1.3900000000000001, 0.00049999000000000007
DataValue, 1.4000000000000001, 0.000499989
DataValue, 1.41, 0.00049999000000000007
DataValue, 1.42, 0.000499989
DataValue, 1.43, 0.00049999000000000007
DataValue, 1.44, 0.000499989
DataValue, 1.45, 0.000499989
DataValue, 1.46, 0.00049999000000000007
DataValue, 1.47, 0.000499989
DataValue, 1.48, 0.00049999000000000007
DataValue, 1.49, 0.000499989
DataValue, 1.5, 0.000499989
DataValue, 1.51, 0.00049999000000000007
DataValue, 1.52, 0.000499989
DataValue, 1.53, 0.000499989
DataValue, 1.54, 0.00049999000000000007
DataValue, 1.55, 0.000499989
DataValue, 1.56, 0.000499989
DataValue, 1.57, 0.000499989
DataValue, 1.58, 0.000499989
DataValue, 1.59, 0.000499989
DataValue, 1.6, 0.000499989
DataValue, 1.61, 0.000499989
DataValue, 1.62, 0.000499989
DataValue, 1.6300000000000001, 0.000499989
DataValue, 1.6400000000000001, 0.000499989
DataValue, 1.6500000000000001, 0.000499988
DataValue, 1.6600000000000001, 0.000499989
DataValue, 1.67, 0.000499989
DataValue, 1.68, 0.000499989
DataValue, 1.69, 0.000499989
DataValue, 1.7, 0.000499988
DataValue, 1.71, 0.000499988
DataValue, 1.72, 0.000499989
DataValue, 1.73, 0.000499988
DataValue, 1.74, 0.000499988
DataValue, 1.75, 0.00049999000000000007
DataValue, 1.76, 0.000499988
DataValue, 1.77, 0.00049999000000000007
DataValue, 1.78, 0.000499988
DataValue, 1.79, 0.000499989
DataValue, 1.8, 0.000499989
DataValue, 1.81, 0.000499988
DataValue, 1.82, 0.000499989
DataValue, 1.83, 0.000499989
DataValue, 1.84, 0.000499988
DataValue, 1.85, 0.000499989
DataValue, 1.86, 0.000499989
DataValue, 1.87, 0.000499989
DataValue, 1.8800000000000001, 0.000499989
DataValue, 1.8900000000000001, 0.000499989
DataValue, 1.9000000000000001, 0.00049999000000000007
DataValue, 1.9100000000000001, 0.000499989
DataValue, 1.92, 0.00049999000000000007
DataValue, 1.93, 0.000499989
DataValue, 1.94, 0.00049999000000000007
DataValue, 1.95, 0.000499988
DataValue, 1.96, 0.000499989
DataValue, 1.97, 0.00049999000000000007
DataValue, 1.98, 0.000499987
DataValue, 1.99, 0.000499989
DataValue, 2, 0.000499989
DataValue, 2.0100000000000002, 0.00049999000000000007
DataValue, 2.02, 0.00049999000000000007
DataValue, 2.0300000000000002, 0.00049999000000000007
DataValue, 2.04, 0.000499989
DataValue, 2.05, 0.000499988
DataValue, 2.06, 0.000499989
DataValue, 2.07, 0.000499988
DataValue, 2.08, 0.000499989
DataValue, 2.09, 0.000499989
DataValue, 2.1, 0.000499989
DataValue, 2.11, 0.000499989
DataValue, 2.12, 0.000499989
DataValue, 2.13, 0.00049999000000000007
DataValue, 2.14, 0.000499989
DataValue, 2.15, 0.00049999000000000007
DataValue, 2.16, 0.000499989
DataValue, 2.17, 0.000499989
DataValue, 2.18, 0.000499989
DataValue, 2.19, 0.000499989
DataValue, 2.2, 0.000499989
DataValue, 2.21, 0.000499987
DataValue, 2.22, 0.000499989
DataValue, 2.23, 0.000499989
DataValue, 2.24, 0.00049999000000000007
DataValue, 2.25, 0.000499989
DataValue, 2.2600000000000002, 0.000499989
DataValue, 2.27, 0.000499988
DataValue, 2.2800000000000002, 0.000499989
DataValue, 2.29, 0.000499989
DataValue, 2.3000000000000003, 0.000499989
DataValue, 2.31, 0.000499989
DataValue, 2.32, 0.000499988
DataValue, 2.33, 0.000499988
DataValue, 2.34, 0.000499988
DataValue, 2.35, 0.000499989
DataValue, 2.36, 0.000499989
DataValue, 2.37, 0.000499989
DataValue, 2.38, 0.00049999000000000007
DataValue, 2.39, 0.000499988
DataValue, 2.4, 0.000499989
DataValue, 2.41, 0.000499987
DataValue, 2.42, 0.000499989
DataValue, 2.43, 0.000499989
DataValue, 2.44, 0.000499989
DataValue, 2.45, 0.000499989
DataValue, 2.46, 0.000499989
DataValue, 2.47, 0.000499989
DataValue, 2.48, 0.000499989
DataValue, 2.49, 0.000499989
DataValue, 2.5, 0.000499989
DataValue, 2.5100000000000002, 0.00049999000000000007
DataValue, 2.52, 0.000499989
DataValue, 2.5300000000000002, 0.000499989
DataValue, 2.54, 0.000499989
DataValue, 2.5500000000000003, 0.000499989
DataValue, 2.56, 0.00049999000000000007
DataValue, 2.57, 0.000499989
DataValue, 2.58, 0.000499989
DataValue, 2.59, 0.000499989
DataValue, 2.6, 0.00049999000000000007
DataValue, 2.61, 0.000499989
DataValue, 2.62, 0.000499989
DataValue, 2.63, 0.000499989
DataValue, 2.64, 0.000499989
DataValue, 2.65, 0.000499988
DataValue, 2.66, 0.000499988
DataValue, 2.67, 0.00049999000000000007
DataValue, 2.68, 0.000499989
DataValue, 2.69, 0.000499989
DataValue, 2.7, 0.000499989
DataValue, 2.71, 0.000499989
DataValue, 2.72, 0.000499989
DataValue, 2.73, 0.000499989
DataValue, 2.74, 0.000499989
DataValue, 2.75, 0.000499991
DataValue, 2.7600000000000002, 0.000499989
DataValue, 2.77, 0.000499988
DataValue, 2.7800000000000002, 0.00049999000000000007
DataValue, 2.79, 0.000499989
DataValue, 2.8000000000000003, 0.000499989
DataValue, 2.81, 0.00049999000000000007
DataValue, 2.82, 0.000499989
DataValue, 2.83, 0.000499989
DataValue, 2.84, 0.000499989
DataValue, 2.85, 0.000499989
DataValue, 2.86, 0.000499989
DataValue, 2.87, 0.00049999000000000007
DataValue, 2.88, 0.000499991
DataValue, 2.89, 0.000499989
DataValue, 2.9, 0.000499989
DataValue, 2.91, 0.000499989
DataValue, 2.92, 0.000499989
DataValue, 2.93, 0.000499989
DataValue, 2.94, 0.00049999000000000007
DataValue, 2.95, 0.00049999000000000007
DataValue, 2.96, 0.00049999000000000007
DataValue, 2.97, 0.000499989
DataValue, 2.98, 0.000499989
DataValue, 2.99, 0.00049999000000000007
DataValue, 3, 0.00049999000000000007
DataValue, 2.99, 0.000499989
DataValue, 2.98, 0.000499991
DataValue, 2.97, 0.00049999000000000007
DataValue, 2.96, 0.000499989
DataValue, 2.95, 0.000499989
DataValue, 2.94, 0.000499989
DataValue, 2.93, 0.000499991
DataValue, 2.92, 0.00049999000000000007
DataValue, 2.91, 0.00049999000000000007
DataValue, 2.9, 0.000499989
DataValue, 2.89, 0.000499989
DataValue, 2.88, 0.00049999000000000007
DataValue, 2.87, 0.000499989
DataValue, 2.86, 0.000499989
DataValue, 2.85, 0.000499989
DataValue, 2.84, 0.00049999000000000007
DataValue, 2.83, 0.00049999000000000007
DataValue, 2.82, 0.000499989
DataValue, 2.81, 0.00049999000000000007
DataValue, 2.8000000000000003, 0.000499989
DataValue, 2.79, 0.00049999000000000007
DataValue, 2.7800000000000002, 0.00049999000000000007
DataValue, 2.77, 0.000499989
DataValue, 2.7600000000000002, 0.000499989
DataValue, 2.75, 0.000499989
DataValue, 2.74, 0.000499989
DataValue, 2.73, 0.000499989
DataValue, 2.72, 0.000499989
DataValue, 2.71, 0.000499989
DataValue, 2.7, 0.000499989
DataValue, 2.69, 0.00049999000000000007
DataValue, 2.68, 0.000499989
DataValue, 2.67, 0.00049999000000000007
DataValue, 2.66, 0.000499989
DataValue, 2.65, 0.000499989
DataValue, 2.64, 0.000499989
DataValue, 2.63, 0.000499988
DataValue, 2.62, 0.000499989
DataValue, 2.61, 0.000499989
DataValue, 2.6, 0.000499989
DataValue, 2.59, 0.000499989
DataValue, 2.58, 0.000499988
DataValue, 2.57, 0.000499989
DataValue, 2.56, 0.000499989
DataValue, 2.5500000000000003, 0.000499988
DataValue, 2.54, 0.00049999000000000007
DataValue, 2.5300000000000002, 0.000499989
DataValue, 2.52, 0.00049999000000000007
DataValue, 2.5100000000000002, 0.000499989
DataValue, 2.5, 0.000499989
DataValue, 2.49, 0.000499989
DataValue, 2.48, 0.000499989
DataValue, 2.47, 0.000499989
DataValue, 2.46, 0.000499989
DataValue, 2.45, 0.000499988
DataValue, 2.44, 0.000499991
DataValue, 2.43, 0.000499989
DataValue, 2.42, 0.00049999000000000007
DataValue, 2.41, 0.000499989
DataValue, 2.4, 0.000499989
DataValue, 2.39, 0.00049999000000000007
DataValue, 2.38, 0.000499989
DataValue, 2.37, 0.000499989
DataValue, 2.36, 0.000499989
DataValue, 2.35, 0.000499989
DataValue, 2.34, 0.000499988
DataValue, 2.33, 0.00049999000000000007
DataValue, 2.32, 0.000499989
DataValue, 2.31, 0.000499989
DataValue, 2.3000000000000003, 0.000499989
DataValue, 2.29, 0.000499989
DataValue, 2.2800000000000002, 0.00049999000000000007
DataValue, 2.27, 0.00049999000000000007
DataValue, 2.2600000000000002, 0.000499989
DataValue, 2.25, 0.000499989
DataValue, 2.24, 0.000499989
DataValue, 2.23, 0.000499988
DataValue, 2.22, 0.000499989
DataValue, 2.21, 0.000499989
DataValue, 2.2, 0.000499989
DataValue, 2.19, 0.000499989
DataValue, 2.18, 0.000499989
DataValue, 2.17, 0.00049999000000000007
DataValue, 2.16, 0.00049999000000000007
DataValue, 2.15, 0.00049999000000000007
DataValue, 2.14, 0.000499989
DataValue, 2.13, 0.000499989
DataValue, 2.12, 0.000499989
DataValue, 2.11, 0.000499989
DataValue, 2.1, 0.000499989
DataValue, 2.09, 0.000499989
DataValue, 2.08, 0.000499988
DataValue, 2.07, 0.000499989
DataValue, 2.06, 0.000499989
DataValue, 2.05, 0.000499989
DataValue, 2.04, 0.000499989
DataValue, 2.0300000000000002, 0.000499989
DataValue, 2.02, 0.000499988
DataValue, 2.0100000000000002, 0.00049999000000000007
DataValue, 2, 0.000499989
DataValue, 1.99, 0.000499988
DataValue, 1.98, 0.000499989
DataValue, 1.97, 0.000499988
DataValue, 1.96, 0.000499989
DataValue, 1.95, 0.000499989
DataValue, 1.94, 0.000499989
DataValue, 1.93, 0.000499989
DataValue, 1.92, 0.000499989
DataValue, 1.9100000000000001, 0.000499988
DataValue, 1.9000000000000001, 0.000499989
DataValue, 1.8900000000000001, 0.00049999000000000007
DataValue, 1.8800000000000001, 0.000499991
DataValue, 1.87, 0.000499989
DataValue, 1.86, 0.000499988
DataValue, 1.85, 0.00049999000000000007
DataValue, 1.84, 0.000499989
DataValue, 1.83, 0.000499989
DataValue, 1.82, 0.000499989
DataValue, 1.81, 0.000499989
DataValue, 1.8, 0.000499988
DataValue, 1.79, 0.000499989
DataValue, 1.78, 0.000499989
DataValue, 1.77, 0.000499989
DataValue, 1.76, 0.000499989
DataValue, 1.75, 0.000499989
DataValue, 1.74, 0.000499988
DataValue, 1.73, 0.000499989
DataValue, 1.72, 0.000499989
DataValue, 1.71, 0.000499989
DataValue, 1.7, 0.000499991
DataValue, 1.69, 0.000499988
DataValue, 1.68, 0.000499989
DataValue, 1.67, 0.000499989
DataValue, 1.6600000000000001, 0.000499989
DataValue, 1.6500000000000001, 0.00049999000000000007
DataValue, 1.6400000000000001, 0.00049999000000000007
DataValue, 1.6300000000000001, 0.00049999000000000007
DataValue, 1.62, 0.000499989
DataValue, 1.61, 0.000499988
DataValue, 1.6, 0.000499989
DataValue, 1.59, 0.000499989
DataValue, 1.58, 0.000499989
DataValue, 1.57, 0.000499989
DataValue, 1.56, 0.000499989
DataValue, 1.55, 0.000499989
DataValue, 1.54, 0.000499989
DataValue, 1.53, 0.00049999000000000007
DataValue, 1.52, 0.000499989
DataValue, 1.51, 0.000499988
DataValue, 1.5, 0.000499988
DataValue, 1.49, 0.000499989
DataValue, 1.48, 0.000499989
DataValue, 1.47, 0.000499989
DataValue, 1.46, 0.000499987
DataValue, 1.45, 0.000499989
DataValue, 1.44, 0.000499988
DataValue, 1.43, 0.000499989
DataValue, 1.42, 0.000499989
DataValue, 1.41, 0.000499989
DataValue, 1.4000000000000001, 0.000499988
DataValue, 1.3900000000000001, 0.000499989
DataValue, 1.3800000000000001, 0.000499989
DataValue, 1.37, 0.000499988
DataValue, 1.36, 0.000499989
DataValue, 1.35, 0.000499989
DataValue, 1.34, 0.000499989
DataValue, 1.33, 0.000499989
DataValue, 1.32, 0.000499989
DataValue, 1.31, 0.000499987
DataValue, 1.3, 0.000499989
DataValue, 1.29, 0.000499989
DataValue, 1.28, 0.000499989
DataValue, 1.27, 0.000499989
DataValue, 1.26, 0.000499989
DataValue, 1.25, 0.000499988
DataValue, 1.24, 0.000499989
DataValue, 1.23, 0.000499988
DataValue, 1.22, 0.000499988
DataValue, 1.21, 0.000499988
DataValue, 1.2, 0.000499988
DataValue, 1.19, 0.000499988
DataValue, 1.18, 0.000499989
DataValue, 1.17, 0.000499988
DataValue, 1.16, 0.000499989
DataValue, 1.1500000000000001, 0.000499987
DataValue, 1.1400000000000001, 0.000499989
DataValue, 1.1300000000000001, 0.000499989
DataValue, 1.12, 0.000499989
DataValue, 1.11, 0.000499988
DataValue, 1.1, 0.000499989
DataValue, 1.09, 0.000499988
DataValue, 1.08, 0.000499988
DataValue, 1.07, 0.000499988
DataValue, 1.06, 0.000499987
DataValue, 1.05, 0.000499989
DataValue, 1.04, 0.000499988
DataValue, 1.03, 0.000499989
DataValue, 1.02, 0.000499989
DataValue, 1.01, 0.000499989
DataValue, 1, 0.000499989
DataValue, 0.99, 0.000499989
DataValue, 0.98, 0.000499988
DataValue, 0.97, 0.000499989
DataValue, 0.96, 0.000499988
DataValue, 0.95000000000000007, 0.000499989
DataValue, 0.94000000000000006, 0.000499989
DataValue, 0.93, 0.000499988
DataValue, 0.92, 0.000499988
DataValue, 0.91, 0.000499989
DataValue, 0.9, 0.000499989
DataValue, 0.89, 0.000499989
DataValue, 0.88, 0.000499989
DataValue, 0.87, 0.000499989
DataValue, 0.86, 0.000499988
DataValue, 0.85, 0.000499988
DataValue, 0.84, 0.000499989
DataValue, 0.83000000000000007, 0.000499989
DataValue, 0.82000000000000006, 0.000499989
DataValue, 0.81, 0.000499989
DataValue, 0.8, 0.000499989
DataValue, 0.79, 0.000499987
DataValue, 0.78, 0.000499989
DataValue, 0.77, 0.00049999000000000007
DataValue, 0.76, 0.000499987
DataValue, 0.75, 0.000499989
DataValue, 0.74, 0.000499989
DataValue, 0.73, 0.000499989
DataValue, 0.72, 0.000499989
DataValue, 0.71, 0.000499989
DataValue, 0.70000000000000007, 0.000499989
DataValue, 0.69000000000000006, 0.000499988
DataValue, 0.68, 0.000499989
DataValue, 0.67, 0.000499989
DataValue, 0.66, 0.000499989
DataValue, 0.65, 0.000499989
DataValue, 0.64, 0.000499989
DataValue, 0.63, 0.000491443
DataValue, 0.62, 0.00047520600000000004
DataValue, 0.61, 0.00046052
DataValue, 0.6, 0.000444837
DataValue, 0.59, 0.000430676
DataValue, 0.58, 0.00041538800000000004
DataValue, 0.57000000000000006, 0.00040176700000000003
DataValue, 0.56, 0.0003868
DataValue, 0.55, 0.00037244700000000003
DataValue, 0.54, 0.000357885
DataValue, 0.53, 0.00034387700000000003
DataValue, 0.52, 0.000329174
DataValue, 0.51, 0.000314987
DataValue, 0.5, 0.000301139
DataValue, 0.49, 0.000287216
DataValue, 0.48, 0.000273465
DataValue, 0.47000000000000003, 0.00026010700000000004
DataValue, 0.46, 0.000246689
DataValue, 0.45, 0.00023381200000000002
DataValue, 0.44, 0.000221064
DataValue, 0.43, 0.00020885100000000002
DataValue, 0.42, 0.000197247
DataValue, 0.41000000000000003, 0.00018538900000000002
